!Agilent Technologies,E5071C,MY46107106,A.09.54
!Date: Thu Apr 11 16:57:51 2013
!Data & Calibration Information:
!Freq	S11:SOLT2(ON)	S21:SOLT2(ON)	S12:SOLT2(ON)	S22:SOLT2(ON)
# Hz S dB R 50
300000	1.988748e-002	-4.122135e-001	2.953257e+001	-1.799314e+002	-6.638089e+001	5.054296e+001	-5.465316e+000	3.882763e+000
100298500	-1.353405e-001	-2.471257e+001	2.916358e+001	1.608760e+002	-4.201298e+001	7.398544e+001	-6.476413e+000	-2.199405e+001
200297000	-3.992742e-001	-4.857026e+001	2.876301e+001	1.427291e+002	-3.640164e+001	5.798195e+001	-6.897073e+000	-4.272705e+001
300295500	-7.356410e-001	-7.122078e+001	2.821818e+001	1.254998e+002	-3.336820e+001	4.432332e+001	-7.309570e+000	-6.250700e+001
400294000	-1.160000e+000	-9.265513e+001	2.754527e+001	1.092316e+002	-3.148724e+001	3.094153e+001	-7.885661e+000	-8.130923e+001
500292500	-1.581827e+000	-1.125461e+002	2.679283e+001	9.412387e+001	-3.024224e+001	1.862365e+001	-8.518682e+000	-9.884382e+001
600291000	-1.981894e+000	-1.310606e+002	2.602916e+001	8.003009e+001	-2.930085e+001	6.999809e+000	-9.139395e+000	-1.152883e+002
700289500	-2.341941e+000	-1.484340e+002	2.527506e+001	6.675962e+001	-2.862536e+001	-3.318540e+000	-9.726959e+000	-1.306741e+002
800288000	-2.663997e+000	-1.646172e+002	2.454028e+001	5.420761e+001	-2.808531e+001	-1.306542e+001	-1.030691e+001	-1.453668e+002
900286500	-2.934725e+000	1.799686e+002	2.383004e+001	4.217812e+001	-2.765024e+001	-2.262869e+001	-1.084825e+001	-1.593884e+002
1000285000	-3.168687e+000	1.654495e+002	2.315460e+001	3.065686e+001	-2.727529e+001	-3.172950e+001	-1.135639e+001	-1.727065e+002
1100283500	-3.369760e+000	1.516129e+002	2.251317e+001	1.950399e+001	-2.694082e+001	-4.040066e+001	-1.179925e+001	1.745535e+002
1200282000	-3.541812e+000	1.381783e+002	2.190757e+001	8.631346e+000	-2.662656e+001	-4.902225e+001	-1.220930e+001	1.620023e+002
1300280500	-3.697223e+000	1.252976e+002	2.132289e+001	-1.976587e+000	-2.634885e+001	-5.716213e+001	-1.260452e+001	1.498590e+002
1400279000	-3.837615e+000	1.128183e+002	2.077436e+001	-1.231253e+001	-2.609351e+001	-6.532975e+001	-1.297934e+001	1.381097e+002
1500277500	-3.964612e+000	1.008016e+002	2.024273e+001	-2.247712e+001	-2.585222e+001	-7.345598e+001	-1.325939e+001	1.267046e+002
1600276000	-4.080949e+000	8.911855e+001	1.975281e+001	-3.248854e+001	-2.559347e+001	-8.133382e+001	-1.350106e+001	1.156412e+002
1700274500	-4.193518e+000	7.768666e+001	1.928421e+001	-4.234349e+001	-2.536947e+001	-8.932565e+001	-1.371120e+001	1.048666e+002
1800273000	-4.295243e+000	6.661953e+001	1.884710e+001	-5.208852e+001	-2.512471e+001	-9.716427e+001	-1.391960e+001	9.458615e+001
1900271500	-4.384272e+000	5.569207e+001	1.842929e+001	-6.177014e+001	-2.490677e+001	-1.050099e+002	-1.410043e+001	8.463853e+001
2000270000	-4.464044e+000	4.494775e+001	1.803138e+001	-7.139328e+001	-2.466707e+001	-1.127868e+002	-1.431283e+001	7.503935e+001
2100268500	-4.541245e+000	3.436661e+001	1.765934e+001	-8.090735e+001	-2.442700e+001	-1.206534e+002	-1.453306e+001	6.568942e+001
2200267000	-4.612585e+000	2.390269e+001	1.730319e+001	-9.044139e+001	-2.421471e+001	-1.286017e+002	-1.470347e+001	5.636782e+001
2300265500	-4.666103e+000	1.342905e+001	1.696963e+001	-9.998825e+001	-2.398062e+001	-1.365286e+002	-1.491252e+001	4.704400e+001
2400264000	-4.713864e+000	3.114376e+000	1.664682e+001	-1.094680e+002	-2.373471e+001	-1.444083e+002	-1.514943e+001	3.782200e+001
2500262500	-4.745026e+000	-7.235001e+000	1.633730e+001	-1.189607e+002	-2.352888e+001	-1.524691e+002	-1.541554e+001	2.871918e+001
2600261000	-4.777317e+000	-1.773073e+001	1.603899e+001	-1.284536e+002	-2.328123e+001	-1.605233e+002	-1.563135e+001	1.945125e+001
2700259500	-4.804593e+000	-2.809285e+001	1.574107e+001	-1.379542e+002	-2.309556e+001	-1.685885e+002	-1.587476e+001	9.715449e+000
2800258000	-4.823737e+000	-3.851159e+001	1.546121e+001	-1.473906e+002	-2.288602e+001	-1.767868e+002	-1.613632e+001	-1.504322e-001
2900256500	-4.830956e+000	-4.888217e+001	1.518535e+001	-1.568837e+002	-2.268442e+001	1.751180e+002	-1.636759e+001	-1.024276e+001
3000255000	-4.828925e+000	-5.937002e+001	1.491165e+001	-1.663555e+002	-2.250064e+001	1.667651e+002	-1.660828e+001	-2.023234e+001
3100253500	-4.828850e+000	-6.979073e+001	1.463994e+001	-1.758045e+002	-2.230924e+001	1.585620e+002	-1.681030e+001	-3.021646e+001
3200252000	-4.829985e+000	-8.017081e+001	1.438128e+001	1.747232e+002	-2.212704e+001	1.504683e+002	-1.703600e+001	-4.032718e+001
3300250500	-4.820298e+000	-9.050018e+001	1.412434e+001	1.653057e+002	-2.195566e+001	1.421089e+002	-1.729559e+001	-5.088096e+001
3400249000	-4.797465e+000	-1.007666e+002	1.387512e+001	1.558900e+002	-2.180334e+001	1.337185e+002	-1.763964e+001	-6.174491e+001
3500247500	-4.759921e+000	-1.111370e+002	1.362211e+001	1.464643e+002	-2.162884e+001	1.254040e+002	-1.797770e+001	-7.331637e+001
3600246000	-4.720232e+000	-1.213660e+002	1.337930e+001	1.370192e+002	-2.145542e+001	1.171319e+002	-1.829939e+001	-8.571254e+001
3700244500	-4.676819e+000	-1.316322e+002	1.313149e+001	1.275708e+002	-2.133428e+001	1.087101e+002	-1.853444e+001	-9.936946e+001
3800243000	-4.608535e+000	-1.417195e+002	1.288415e+001	1.181723e+002	-2.118069e+001	1.002271e+002	-1.860600e+001	-1.139434e+002
3900241500	-4.529168e+000	-1.518755e+002	1.264071e+001	1.087530e+002	-2.105819e+001	9.176549e+001	-1.848276e+001	-1.290112e+002
4000240000	-4.436701e+000	-1.618849e+002	1.240120e+001	9.935843e+001	-2.093355e+001	8.340837e+001	-1.818989e+001	-1.437799e+002
4100238500	-4.327866e+000	-1.718045e+002	1.215282e+001	8.996726e+001	-2.081612e+001	7.493835e+001	-1.770051e+001	-1.577568e+002
4200237000	-4.226813e+000	1.783152e+002	1.191212e+001	8.059146e+001	-2.069041e+001	6.646066e+001	-1.703990e+001	-1.714915e+002
4300235500	-4.097173e+000	1.684996e+002	1.166285e+001	7.123318e+001	-2.061115e+001	5.794193e+001	-1.633610e+001	1.757898e+002
4400234000	-3.978272e+000	1.587593e+002	1.141295e+001	6.196271e+001	-2.052226e+001	4.948970e+001	-1.565429e+001	1.642686e+002
4500232500	-3.852949e+000	1.490945e+002	1.116430e+001	5.268567e+001	-2.044402e+001	4.103525e+001	-1.498166e+001	1.536781e+002
4600231000	-3.736716e+000	1.395518e+002	1.091718e+001	4.346045e+001	-2.035864e+001	3.270015e+001	-1.434461e+001	1.438400e+002
4700229500	-3.617512e+000	1.300572e+002	1.067372e+001	3.426846e+001	-2.029764e+001	2.420819e+001	-1.375558e+001	1.341398e+002
4800228000	-3.508053e+000	1.206980e+002	1.042387e+001	2.515150e+001	-2.023066e+001	1.594818e+001	-1.323672e+001	1.245861e+002
4900226500	-3.399385e+000	1.114291e+002	1.018346e+001	1.604020e+001	-2.017549e+001	7.578789e+000	-1.280473e+001	1.151362e+002
5000225000	-3.296472e+000	1.022683e+002	9.941246e+000	6.988549e+000	-2.011655e+001	-7.515734e-001	-1.239644e+001	1.059403e+002
5100223500	-3.197588e+000	9.306057e+001	9.700331e+000	-2.024220e+000	-2.006037e+001	-9.022236e+000	-1.198543e+001	9.694946e+001
5200222000	-3.110994e+000	8.406708e+001	9.461879e+000	-1.097201e+001	-2.001313e+001	-1.723169e+001	-1.156658e+001	8.795122e+001
5300220500	-3.026297e+000	7.511334e+001	9.228034e+000	-1.989590e+001	-1.996173e+001	-2.538688e+001	-1.117642e+001	7.902256e+001
5400219000	-2.956739e+000	6.624084e+001	9.005279e+000	-2.870288e+001	-1.990937e+001	-3.355045e+001	-1.079130e+001	7.036760e+001
5500217500	-2.887995e+000	5.744869e+001	8.782472e+000	-3.748359e+001	-1.985797e+001	-4.166830e+001	-1.043230e+001	6.220208e+001
5600216000	-2.828269e+000	4.877177e+001	8.572849e+000	-4.622750e+001	-1.980463e+001	-4.976963e+001	-1.009785e+001	5.410626e+001
5700214500	-2.770446e+000	4.017739e+001	8.372319e+000	-5.495599e+001	-1.973483e+001	-5.776224e+001	-9.767545e+000	4.610184e+001
5800213000	-2.730905e+000	3.167036e+001	8.182394e+000	-6.367061e+001	-1.967342e+001	-6.582100e+001	-9.503408e+000	3.820254e+001
5900211500	-2.684868e+000	2.326847e+001	8.002797e+000	-7.244008e+001	-1.959184e+001	-7.398186e+001	-9.291286e+000	3.039949e+001
6000210000	-2.654165e+000	1.479599e+001	7.826560e+000	-8.119059e+001	-1.952086e+001	-8.212511e+001	-9.128041e+000	2.267165e+001
6100208500	-2.610378e+000	6.586096e+000	7.655777e+000	-8.990414e+001	-1.946965e+001	-9.011461e+001	-9.008568e+000	1.480198e+001
6200207000	-2.566375e+000	-1.742422e+000	7.488118e+000	-9.875637e+001	-1.938515e+001	-9.859241e+001	-8.912069e+000	6.766081e+000
6300205500	-2.540050e+000	-9.996866e+000	7.317391e+000	-1.076030e+002	-1.932670e+001	-1.066588e+002	-8.882512e+000	-1.667089e+000
6400204000	-2.505736e+000	-1.828811e+001	7.148032e+000	-1.163884e+002	-1.926219e+001	-1.148019e+002	-8.882620e+000	-1.012181e+001
6500202500	-2.473741e+000	-2.675269e+001	6.972970e+000	-1.251855e+002	-1.918313e+001	-1.230031e+002	-8.888707e+000	-1.866372e+001
6600201000	-2.435068e+000	-3.517059e+001	6.807219e+000	-1.339610e+002	-1.913198e+001	-1.311457e+002	-8.855915e+000	-2.739638e+001
6700199500	-2.406394e+000	-4.359315e+001	6.647784e+000	-1.426603e+002	-1.906786e+001	-1.393894e+002	-8.800533e+000	-3.629273e+001
6800198000	-2.380854e+000	-5.210344e+001	6.490380e+000	-1.514192e+002	-1.898907e+001	-1.475731e+002	-8.723864e+000	-4.518957e+001
6900196500	-2.363477e+000	-6.061766e+001	6.343435e+000	-1.601582e+002	-1.892428e+001	-1.557660e+002	-8.638484e+000	-5.399111e+001
7000195000	-2.338548e+000	-6.918445e+001	6.195534e+000	-1.688514e+002	-1.886261e+001	-1.639050e+002	-8.529940e+000	-6.267179e+001
7100193500	-2.318690e+000	-7.787265e+001	6.052909e+000	-1.775108e+002	-1.879145e+001	-1.721386e+002	-8.393591e+000	-7.119463e+001
7200192000	-2.295509e+000	-8.648929e+001	5.913119e+000	1.738469e+002	-1.871184e+001	1.796720e+002	-8.269263e+000	-7.961027e+001
7300190500	-2.280361e+000	-9.510996e+001	5.808151e+000	1.651991e+002	-1.862539e+001	1.714303e+002	-8.168563e+000	-8.795430e+001
7400189000	-2.270118e+000	-1.038210e+002	5.711812e+000	1.564195e+002	-1.850473e+001	1.632262e+002	-8.095632e+000	-9.640983e+001
7500187500	-2.236622e+000	-1.126534e+002	5.631035e+000	1.476756e+002	-1.841881e+001	1.548152e+002	-8.017120e+000	-1.049034e+002
7600186000	-2.227959e+000	-1.215643e+002	5.556421e+000	1.387395e+002	-1.828856e+001	1.462931e+002	-7.948922e+000	-1.136032e+002
7700184500	-2.213151e+000	-1.305324e+002	5.492313e+000	1.295868e+002	-1.819909e+001	1.375868e+002	-7.864383e+000	-1.224647e+002
7800183000	-2.257269e+000	-1.395483e+002	5.376544e+000	1.202391e+002	-1.812240e+001	1.287211e+002	-7.765305e+000	-1.316468e+002
7900181500	-2.277464e+000	-1.482445e+002	5.268458e+000	1.109620e+002	-1.806645e+001	1.200065e+002	-7.641052e+000	-1.411704e+002
8000180000	-2.287366e+000	-1.569037e+002	5.119666e+000	1.016977e+002	-1.802220e+001	1.113424e+002	-7.484863e+000	-1.507521e+002
8100178500	-2.307182e+000	-1.655735e+002	4.984056e+000	9.251023e+001	-1.800513e+001	1.026072e+002	-7.295054e+000	-1.603104e+002
8200177000	-2.293226e+000	-1.742469e+002	4.815360e+000	8.335201e+001	-1.799887e+001	9.390261e+001	-7.103741e+000	-1.698411e+002
8300175500	-2.255767e+000	1.770345e+002	4.661610e+000	7.414390e+001	-1.797603e+001	8.524868e+001	-6.901543e+000	-1.793002e+002
8400174000	-2.203497e+000	1.684841e+002	4.499066e+000	6.501055e+001	-1.796882e+001	7.661546e+001	-6.714814e+000	1.716309e+002
8500172500	-2.139145e+000	1.595903e+002	4.300613e+000	5.596857e+001	-1.797842e+001	6.796658e+001	-6.591579e+000	1.632031e+002
8600171000	-2.059695e+000	1.506992e+002	4.111744e+000	4.697457e+001	-1.804471e+001	5.934167e+001	-6.472143e+000	1.552275e+002
8700169500	-2.001162e+000	1.418456e+002	3.939660e+000	3.830874e+001	-1.801454e+001	5.120287e+001	-6.438848e+000	1.482369e+002
8800168000	-1.965749e+000	1.328110e+002	3.760034e+000	2.960150e+001	-1.801403e+001	4.316356e+001	-6.324384e+000	1.409575e+002
8900166500	-1.911259e+000	1.239596e+002	3.653463e+000	2.084051e+001	-1.796242e+001	3.461960e+001	-6.243792e+000	1.337741e+002
9000165000	-1.875115e+000	1.148393e+002	3.490881e+000	1.191685e+001	-1.800028e+001	2.628055e+001	-6.199102e+000	1.263894e+002
9100163500	-1.846302e+000	1.057187e+002	3.362665e+000	3.168300e+000	-1.800310e+001	1.760353e+001	-6.201551e+000	1.188561e+002
9200162000	-1.854366e+000	9.669987e+001	3.196205e+000	-5.734390e+000	-1.792492e+001	9.473492e+000	-6.226424e+000	1.108828e+002
9300160500	-1.862005e+000	8.769393e+001	3.072745e+000	-1.481303e+001	-1.788122e+001	8.583021e-001	-6.243681e+000	1.030707e+002
9400159000	-1.888096e+000	7.887827e+001	2.980430e+000	-2.412456e+001	-1.786234e+001	-7.859470e+000	-6.323128e+000	9.518585e+001
9500157500	-1.944645e+000	6.989448e+001	2.872008e+000	-3.346645e+001	-1.780814e+001	-1.761211e+001	-6.468544e+000	8.764663e+001
9600156000	-2.046922e+000	6.138839e+001	2.680966e+000	-4.445390e+001	-1.781359e+001	-2.760102e+001	-6.813855e+000	8.083569e+001
9700154500	-2.191400e+000	5.400846e+001	2.279161e+000	-5.710287e+001	-1.806904e+001	-4.018354e+001	-7.528671e+000	7.746718e+001
9800153000	-2.078611e+000	4.825227e+001	8.318571e-001	-7.157585e+001	-1.946912e+001	-5.378331e+001	-7.922670e+000	8.655485e+001
9900151500	-1.450937e+000	4.071523e+001	-2.215872e+000	-7.162896e+001	-2.230994e+001	-5.358414e+001	-5.091695e+000	9.573260e+001
10000150000	-9.661037e-001	2.925286e+001	-2.583994e+000	-5.079078e+001	-2.255545e+001	-3.177326e+001	-1.702228e+000	8.942467e+001
10100148500	-8.974183e-001	1.529969e+001	2.244502e+000	-4.125362e+001	-1.756905e+001	-2.234850e+001	2.321958e+000	7.028522e+001
10200147000	-1.963232e+000	5.884385e+000	5.492136e+000	-7.573386e+001	-1.416623e+001	-5.665237e+001	2.890615e+000	2.744652e+001
10300145500	-1.964136e+000	1.541106e+000	4.234484e+000	-9.964146e+001	-1.527217e+001	-7.985394e+001	-2.041293e-002	6.865251e+000
10400144000	-1.761129e+000	-5.940338e+000	3.065407e+000	-1.118245e+002	-1.641046e+001	-9.238543e+001	-2.084501e+000	-1.725858e-001
10500142500	-1.672159e+000	-1.404069e+001	2.451573e+000	-1.216686e+002	-1.685772e+001	-1.019203e+002	-2.989026e+000	-7.780039e+000
10600141000	-1.527393e+000	-2.280212e+001	1.773886e+000	-1.306450e+002	-1.738695e+001	-1.107912e+002	-4.530500e+000	-1.505613e+001
10700139500	-1.482028e+000	-3.164048e+001	1.436108e+000	-1.379524e+002	-1.752271e+001	-1.181205e+002	-5.165474e+000	-1.760750e+001
10800138000	-1.485007e+000	-4.024841e+001	1.246975e+000	-1.461986e+002	-1.758526e+001	-1.254211e+002	-5.314903e+000	-2.408639e+001
10900136500	-1.477322e+000	-4.917590e+001	9.900188e-001	-1.547297e+002	-1.776074e+001	-1.337068e+002	-5.559561e+000	-3.353220e+001
11000135000	-1.458600e+000	-5.792423e+001	8.704544e-001	-1.632607e+002	-1.782093e+001	-1.416326e+002	-5.768132e+000	-4.213946e+001
11100133500	-1.505616e+000	-6.678446e+001	7.019986e-001	-1.721633e+002	-1.778759e+001	-1.497258e+002	-5.784780e+000	-5.139670e+001
11200132000	-1.472061e+000	-7.525325e+001	5.758231e-001	-1.798692e+002	-1.785969e+001	-1.580947e+002	-5.753199e+000	-6.085860e+001
11300130500	-1.493236e+000	-8.382258e+001	3.667376e-001	1.708159e+002	-1.783278e+001	-1.666913e+002	-5.638370e+000	-7.041401e+001
11400129000	-1.460256e+000	-9.215399e+001	2.604593e-001	1.623390e+002	-1.794442e+001	-1.753054e+002	-5.554717e+000	-7.882817e+001
11500127500	-1.460943e+000	-1.005309e+002	1.359843e-001	1.532084e+002	-1.795372e+001	1.764926e+002	-5.326552e+000	-8.727352e+001
11600126000	-1.396813e+000	-1.090490e+002	3.656744e-002	1.445002e+002	-1.791267e+001	1.680631e+002	-5.033493e+000	-9.602502e+001
11700124500	-1.360485e+000	-1.176432e+002	-1.333862e-001	1.355689e+002	-1.807153e+001	1.593278e+002	-4.963635e+000	-1.049952e+002
11800123000	-1.340136e+000	-1.259880e+002	-3.254347e-001	1.265705e+002	-1.801919e+001	1.508977e+002	-4.891772e+000	-1.136452e+002
11900121500	-1.348074e+000	-1.345296e+002	-4.705536e-001	1.176070e+002	-1.812568e+001	1.418996e+002	-5.010224e+000	-1.224002e+002
12000120000	-1.358284e+000	-1.428302e+002	-7.453921e-001	1.088358e+002	-1.831135e+001	1.342302e+002	-5.168819e+000	-1.290799e+002
12100118500	-1.275858e+000	-1.506280e+002	-8.867110e-001	1.002734e+002	-1.819946e+001	1.259417e+002	-5.047716e+000	-1.382359e+002
12200117000	-1.111992e+000	-1.607739e+002	-9.830154e-001	9.244803e+001	-1.826755e+001	1.174383e+002	-4.699786e+000	-1.423977e+002
12300115500	-1.320525e+000	-1.685598e+002	-1.107278e+000	8.314814e+001	-1.835246e+001	1.089810e+002	-4.297290e+000	-1.558454e+002
12400114000	-1.334194e+000	-1.763305e+002	-1.132404e+000	7.448372e+001	-1.830564e+001	1.002323e+002	-3.764695e+000	-1.675018e+002
12500112500	-1.160540e+000	1.753611e+002	-1.482707e+000	6.355947e+001	-1.856783e+001	8.929207e+001	-4.612051e+000	1.773892e+002
12600111000	-1.218395e+000	1.648827e+002	-1.771254e+000	5.587383e+001	-1.888669e+001	8.281749e+001	-4.751506e+000	1.748871e+002
12700109500	-1.409640e+000	1.585937e+002	-1.857037e+000	4.747059e+001	-1.880842e+001	7.526098e+001	-3.655883e+000	1.674331e+002
12800108000	-1.303857e+000	1.505722e+002	-2.356429e+000	3.791066e+001	-1.897043e+001	6.550646e+001	-3.736010e+000	1.550527e+002
12900106500	-1.336698e+000	1.441311e+002	-2.663710e+000	3.250738e+001	-1.941657e+001	5.884487e+001	-4.154675e+000	1.501729e+002
13000105000	-1.015744e+000	1.358689e+002	-2.449608e+000	2.379995e+001	-1.910711e+001	5.216833e+001	-3.342482e+000	1.422680e+002
13100103500	-1.041754e+000	1.268032e+002	-2.768997e+000	1.450205e+001	-1.940906e+001	4.226127e+001	-3.564389e+000	1.341442e+002
13200102000	-1.144420e+000	1.188966e+002	-3.182947e+000	7.085055e+000	-1.960978e+001	3.562061e+001	-3.674681e+000	1.271860e+002
13300100500	-1.113227e+000	1.113882e+002	-3.179444e+000	3.210640e-001	-1.963253e+001	2.956543e+001	-3.876695e+000	1.218940e+002
13400099000	-1.097151e+000	1.035572e+002	-3.119936e+000	-8.275036e+000	-1.951737e+001	2.129708e+001	-3.498839e+000	1.153809e+002
13500097500	-1.096083e+000	9.570813e+001	-3.293820e+000	-1.680038e+001	-1.967260e+001	1.320366e+001	-3.469118e+000	1.071226e+002
13600096000	-1.092899e+000	8.775454e+001	-3.471213e+000	-2.487065e+001	-1.968376e+001	5.448857e+000	-3.411565e+000	9.967796e+001
13700094500	-1.099825e+000	7.965919e+001	-3.467846e+000	-3.226984e+001	-1.970632e+001	-1.967520e+000	-3.168438e+000	9.185718e+001
13800093000	-1.179290e+000	7.183867e+001	-3.554698e+000	-4.207886e+001	-1.962573e+001	-1.048168e+001	-2.902238e+000	8.031452e+001
13900091500	-1.137230e+000	6.401486e+001	-4.147740e+000	-5.044642e+001	-2.011272e+001	-1.908807e+001	-3.637151e+000	7.221360e+001
14000090000	-1.178392e+000	5.602092e+001	-4.118444e+000	-5.653200e+001	-2.022307e+001	-2.468768e+001	-3.390937e+000	6.699520e+001
14100088500	-1.182950e+000	4.845339e+001	-4.090678e+000	-6.391910e+001	-2.017214e+001	-3.144292e+001	-3.368262e+000	6.037576e+001
14200087000	-1.136356e+000	4.070361e+001	-4.160886e+000	-7.227185e+001	-1.999968e+001	-3.856169e+001	-3.082295e+000	5.485219e+001
14300085500	-1.134066e+000	3.256962e+001	-4.189144e+000	-8.086436e+001	-1.995346e+001	-4.671129e+001	-2.765718e+000	4.775499e+001
14400084000	-1.129707e+000	2.483709e+001	-4.369805e+000	-8.815799e+001	-1.998589e+001	-5.339773e+001	-2.804959e+000	4.082666e+001
14500082500	-1.174105e+000	1.717678e+001	-4.348737e+000	-9.646274e+001	-1.984916e+001	-6.094403e+001	-2.713809e+000	3.399776e+001
14600081000	-1.184619e+000	9.587769e+000	-4.444365e+000	-1.035295e+002	-2.004458e+001	-6.759291e+001	-2.905463e+000	2.679591e+001
14700079500	-1.192790e+000	1.793464e+000	-4.401560e+000	-1.112533e+002	-1.966218e+001	-7.455641e+001	-3.087880e+000	2.106282e+001
14800078000	-1.240503e+000	-5.951693e+000	-4.420166e+000	-1.197795e+002	-1.960553e+001	-8.206898e+001	-3.044920e+000	1.455343e+001
14900076500	-1.276754e+000	-1.375824e+001	-4.378178e+000	-1.276183e+002	-1.936299e+001	-9.045797e+001	-3.093776e+000	7.049418e+000
15000075000	-1.320027e+000	-2.156955e+001	-4.494969e+000	-1.354214e+002	-1.927402e+001	-9.793209e+001	-3.223707e+000	-2.087980e+000
15100073500	-1.370798e+000	-2.937981e+001	-4.272554e+000	-1.436231e+002	-1.901770e+001	-1.051526e+002	-3.588259e+000	-1.011395e+001
15200072000	-1.412063e+000	-3.717229e+001	-4.233978e+000	-1.519625e+002	-1.876781e+001	-1.138069e+002	-3.679747e+000	-1.750097e+001
15300070500	-1.436525e+000	-4.473873e+001	-4.148755e+000	-1.605073e+002	-1.859127e+001	-1.230959e+002	-3.682577e+000	-2.590666e+001
