!Agilent Technologies,E5071C,MY46107106,A.09.54
!Date: Thu Apr 11 17:06:35 2013
!Data & Calibration Information:
!Freq	S11:SOLT2(ON)	S21:SOLT2(ON)	S12:SOLT2(ON)	S22:SOLT2(ON)
# Hz S MA R 50
300000	1.001435e+000	-2.739846e-001	3.149932e-004	6.755935e+001	9.305657e-004	4.461385e+001	1.000354e+000	-1.895339e-001
100298500	9.995707e-001	-7.905572e+000	1.330206e-004	1.053051e+000	1.344282e-004	2.446462e+001	9.992645e-001	-7.935274e+000
200297000	1.000115e+000	-1.576472e+001	1.719816e-004	1.861540e+001	1.811737e-004	-5.899146e+000	9.984787e-001	-1.582792e+001
300295500	9.985855e-001	-2.353017e+001	2.149100e-004	6.268265e+001	2.071177e-004	6.859594e+001	9.980397e-001	-2.370497e+001
400294000	9.980079e-001	-3.136974e+001	1.515802e-004	8.701469e+001	1.528095e-004	5.195330e+001	9.976215e-001	-3.158425e+001
500292500	9.970383e-001	-3.919442e+001	1.745940e-004	3.997870e+001	2.385303e-004	4.968202e+001	9.970819e-001	-3.945277e+001
600291000	9.964482e-001	-4.701548e+001	1.848391e-004	4.641915e+001	2.871699e-004	3.391118e+001	9.962785e-001	-4.733036e+001
700289500	9.959837e-001	-5.480303e+001	3.352400e-004	3.903937e+001	3.295192e-004	3.367322e+000	9.957270e-001	-5.522312e+001
800288000	9.955033e-001	-6.259793e+001	3.272055e-004	2.982714e+001	2.368755e-004	2.302261e+001	9.951479e-001	-6.309256e+001
900286500	9.947928e-001	-7.039804e+001	4.503728e-004	2.263559e+001	4.397291e-004	2.071480e+001	9.944049e-001	-7.092580e+001
1000285000	9.939902e-001	-7.817989e+001	3.688781e-004	1.823681e+001	3.658536e-004	2.082696e+001	9.935298e-001	-7.879518e+001
1100283500	9.932116e-001	-8.592595e+001	4.672840e-004	-6.220120e-001	4.743965e-004	4.356549e+000	9.926423e-001	-8.664664e+001
1200282000	9.926714e-001	-9.369069e+001	4.622064e-004	-2.077716e+000	4.157567e-004	-4.437805e+000	9.917453e-001	-9.450062e+001
1300280500	9.921731e-001	-1.014353e+002	5.860415e-004	-1.714341e+001	5.291747e-004	-1.205402e+001	9.907953e-001	-1.023086e+002
1400279000	9.915354e-001	-1.091895e+002	5.700902e-004	-2.228357e+001	6.255329e-004	-7.129401e+000	9.905552e-001	-1.101330e+002
1500277500	9.912217e-001	-1.169586e+002	6.434917e-004	-2.652212e+001	5.884693e-004	-2.853180e+001	9.896790e-001	-1.180138e+002
1600276000	9.906672e-001	-1.246659e+002	6.052401e-004	-4.104562e+001	7.016240e-004	-3.118532e+001	9.890197e-001	-1.258439e+002
1700274500	9.900090e-001	-1.323410e+002	7.928890e-004	-4.699164e+001	7.295252e-004	-4.481286e+001	9.887998e-001	-1.337517e+002
1800273000	9.898014e-001	-1.400836e+002	7.522505e-004	-5.227565e+001	7.992297e-004	-5.751828e+001	9.880253e-001	-1.415853e+002
1900271500	9.897641e-001	-1.477662e+002	7.732839e-004	-5.882234e+001	8.177065e-004	-5.946205e+001	9.875573e-001	-1.494347e+002
2000270000	9.896625e-001	-1.554103e+002	8.739427e-004	-6.973855e+001	8.005345e-004	-7.307168e+001	9.875746e-001	-1.572351e+002
2100268500	9.894212e-001	-1.630876e+002	8.871929e-004	-7.186772e+001	7.702352e-004	-7.441328e+001	9.875471e-001	-1.650850e+002
2200267000	9.892265e-001	-1.707148e+002	8.878533e-004	-8.291499e+001	8.692247e-004	-8.954313e+001	9.872804e-001	-1.728876e+002
2300265500	9.887343e-001	-1.782757e+002	1.006019e-003	-8.956170e+001	8.951370e-004	-9.145471e+001	9.865447e-001	1.794904e+002
2400264000	9.885401e-001	1.741512e+002	9.951520e-004	-9.641129e+001	9.603993e-004	-9.691937e+001	9.864088e-001	1.719192e+002
2500262500	9.878053e-001	1.666472e+002	1.147733e-003	-1.076821e+002	9.868010e-004	-1.084453e+002	9.865145e-001	1.643587e+002
2600261000	9.873859e-001	1.591876e+002	1.050939e-003	-1.087362e+002	1.105106e-003	-1.117579e+002	9.858871e-001	1.568189e+002
2700259500	9.873303e-001	1.517406e+002	9.533613e-004	-1.211690e+002	1.081823e-003	-1.191194e+002	9.853094e-001	1.493450e+002
2800258000	9.863512e-001	1.443093e+002	1.136750e-003	-1.397726e+002	1.114863e-003	-1.295962e+002	9.848754e-001	1.419546e+002
2900256500	9.863473e-001	1.369003e+002	1.047283e-003	-1.417169e+002	1.222397e-003	-1.382618e+002	9.841075e-001	1.345888e+002
3000255000	9.858016e-001	1.296107e+002	1.064086e-003	-1.383467e+002	1.264439e-003	-1.470151e+002	9.837379e-001	1.271489e+002
3100253500	9.851181e-001	1.222703e+002	1.402810e-003	-1.565173e+002	1.384749e-003	-1.486040e+002	9.834637e-001	1.196772e+002
3200252000	9.843965e-001	1.149310e+002	1.384987e-003	-1.628265e+002	1.290808e-003	-1.637968e+002	9.819168e-001	1.122629e+002
3300250500	9.841828e-001	1.076022e+002	1.309936e-003	-1.719680e+002	1.460173e-003	-1.692236e+002	9.814794e-001	1.049565e+002
3400249000	9.833614e-001	1.003937e+002	1.460213e-003	1.783808e+002	1.442283e-003	-1.792791e+002	9.809170e-001	9.762013e+001
3500247500	9.823605e-001	9.316588e+001	1.439618e-003	1.667629e+002	1.460899e-003	1.778174e+002	9.805818e-001	9.030665e+001
3600246000	9.818069e-001	8.596003e+001	1.592747e-003	1.639369e+002	1.329313e-003	1.646644e+002	9.805263e-001	8.306818e+001
3700244500	9.812422e-001	7.877027e+001	1.636470e-003	1.503506e+002	1.581994e-003	1.563567e+002	9.800331e-001	7.598447e+001
3800243000	9.805238e-001	7.158745e+001	1.654573e-003	1.527356e+002	1.708864e-003	1.438701e+002	9.797015e-001	6.897114e+001
3900241500	9.800433e-001	6.446338e+001	1.764673e-003	1.403422e+002	1.717766e-003	1.411052e+002	9.797476e-001	6.196379e+001
4000240000	9.791846e-001	5.737341e+001	1.731646e-003	1.345113e+002	1.705005e-003	1.319817e+002	9.791574e-001	5.493214e+001
4100238500	9.786931e-001	5.029252e+001	1.831567e-003	1.267054e+002	1.794446e-003	1.250423e+002	9.780051e-001	4.795075e+001
4200237000	9.786283e-001	4.314821e+001	2.016560e-003	1.170820e+002	1.951941e-003	1.171934e+002	9.776066e-001	4.102184e+001
4300235500	9.771066e-001	3.604447e+001	2.058040e-003	1.058954e+002	1.949345e-003	1.094111e+002	9.762532e-001	3.405097e+001
4400234000	9.769232e-001	2.892103e+001	2.180086e-003	1.002862e+002	2.171085e-003	9.966956e+001	9.754787e-001	2.697685e+001
4500232500	9.756402e-001	2.178143e+001	2.286237e-003	9.262872e+001	2.209783e-003	9.365739e+001	9.745929e-001	1.985246e+001
4600231000	9.745678e-001	1.463965e+001	2.580373e-003	8.296117e+001	2.474134e-003	8.221635e+001	9.730458e-001	1.271553e+001
4700229500	9.731823e-001	7.450456e+000	2.547820e-003	7.301552e+001	2.573664e-003	7.289065e+001	9.711730e-001	5.510147e+000
4800228000	9.725636e-001	2.854009e-001	2.896052e-003	6.235302e+001	2.813280e-003	6.203946e+001	9.697108e-001	-1.732308e+000
4900226500	9.711025e-001	-6.961721e+000	2.898959e-003	4.948240e+001	3.083713e-003	5.117335e+001	9.694508e-001	-9.019170e+000
5000225000	9.696483e-001	-1.417299e+001	2.956076e-003	3.930477e+001	3.026621e-003	3.874891e+001	9.691261e-001	-1.630084e+001
5100223500	9.691203e-001	-2.135902e+001	3.109942e-003	2.991434e+001	3.082385e-003	3.015251e+001	9.682475e-001	-2.349437e+001
5200222000	9.674485e-001	-2.864145e+001	3.085128e-003	2.073692e+001	3.114574e-003	1.600785e+001	9.673737e-001	-3.063872e+001
5300220500	9.661707e-001	-3.588624e+001	3.152456e-003	7.008767e+000	3.375105e-003	7.391219e+000	9.669360e-001	-3.783321e+001
5400219000	9.647621e-001	-4.319817e+001	3.381030e-003	-6.853733e-001	3.472386e-003	-4.375796e+000	9.672734e-001	-4.503183e+001
5500217500	9.642589e-001	-5.054514e+001	3.601493e-003	-1.421999e+001	3.495611e-003	-9.977516e+000	9.660034e-001	-5.229219e+001
5600216000	9.626212e-001	-5.789073e+001	3.631100e-003	-2.459864e+001	3.506069e-003	-2.612249e+001	9.645575e-001	-5.959155e+001
5700214500	9.620098e-001	-6.531201e+001	3.656718e-003	-3.733529e+001	3.404614e-003	-3.408394e+001	9.629272e-001	-6.690266e+001
5800213000	9.612043e-001	-7.273245e+001	3.720452e-003	-4.744087e+001	3.787432e-003	-4.417500e+001	9.615574e-001	-7.438198e+001
5900211500	9.596994e-001	-8.019604e+001	3.703829e-003	-5.971634e+001	3.543842e-003	-5.764623e+001	9.597534e-001	-8.192237e+001
6000210000	9.587364e-001	-8.779592e+001	3.647255e-003	-7.172665e+001	3.663684e-003	-7.279506e+001	9.578883e-001	-8.960485e+001
6100208500	9.575992e-001	-9.541964e+001	3.516275e-003	-8.090484e+001	3.478587e-003	-8.330379e+001	9.556755e-001	-9.740859e+001
6200207000	9.564895e-001	-1.030685e+002	3.584528e-003	-9.249686e+001	3.493886e-003	-9.298602e+001	9.542157e-001	-1.052801e+002
6300205500	9.560376e-001	-1.107844e+002	3.282719e-003	-1.044146e+002	3.361357e-003	-1.036280e+002	9.539037e-001	-1.132960e+002
6400204000	9.546861e-001	-1.185798e+002	3.374117e-003	-1.121262e+002	3.425413e-003	-1.126130e+002	9.533034e-001	-1.213699e+002
6500202500	9.546357e-001	-1.263423e+002	3.310730e-003	-1.249508e+002	3.361203e-003	-1.240215e+002	9.533053e-001	-1.293970e+002
6600201000	9.538998e-001	-1.341407e+002	3.231050e-003	-1.351433e+002	3.200123e-003	-1.350329e+002	9.534737e-001	-1.373388e+002
6700199500	9.539148e-001	-1.419626e+002	3.174905e-003	-1.444297e+002	3.222353e-003	-1.446736e+002	9.543348e-001	-1.452131e+002
6800198000	9.538024e-001	-1.498167e+002	3.094384e-003	-1.533707e+002	3.067800e-003	-1.549088e+002	9.546909e-001	-1.530928e+002
6900196500	9.537408e-001	-1.576813e+002	3.017048e-003	-1.657990e+002	3.068321e-003	-1.660185e+002	9.550879e-001	-1.609985e+002
7000195000	9.549382e-001	-1.655250e+002	2.809726e-003	1.772239e+002	2.743231e-003	-1.795752e+002	9.551750e-001	-1.689175e+002
7100193500	9.558954e-001	-1.734024e+002	2.565976e-003	1.706157e+002	2.431797e-003	1.673879e+002	9.542121e-001	-1.768734e+002
7200192000	9.571690e-001	1.787345e+002	2.339218e-003	1.584842e+002	2.546488e-003	1.555221e+002	9.529467e-001	1.751029e+002
7300190500	9.584490e-001	1.706759e+002	2.156841e-003	1.401109e+002	2.231716e-003	1.470812e+002	9.514282e-001	1.669814e+002
7400189000	9.603264e-001	1.625811e+002	1.603076e-003	1.214249e+002	1.614837e-003	1.394147e+002	9.496070e-001	1.587650e+002
7500187500	9.610183e-001	1.544254e+002	1.188095e-003	1.411948e+002	1.219769e-003	1.320604e+002	9.472130e-001	1.504569e+002
7600186000	9.591608e-001	1.462726e+002	1.205088e-003	1.361525e+002	9.935330e-004	1.323198e+002	9.449527e-001	1.421106e+002
7700184500	9.566051e-001	1.381448e+002	8.354505e-004	1.556620e+002	5.551336e-004	1.662164e+002	9.429910e-001	1.338011e+002
7800183000	9.542471e-001	1.301224e+002	1.141322e-003	1.673192e+002	1.145950e-003	1.755718e+002	9.426463e-001	1.255263e+002
7900181500	9.499783e-001	1.222741e+002	1.147915e-003	-1.755353e+002	1.113719e-003	1.654629e+002	9.440514e-001	1.174070e+002
8000180000	9.476505e-001	1.145640e+002	1.452710e-003	1.574197e+002	1.527737e-003	1.568894e+002	9.450851e-001	1.093494e+002
8100178500	9.469604e-001	1.067118e+002	1.675001e-003	1.609362e+002	1.257035e-003	1.567232e+002	9.461886e-001	1.014728e+002
8200177000	9.473590e-001	9.902056e+001	1.804883e-003	1.399364e+002	2.059500e-003	1.411939e+002	9.483969e-001	9.369954e+001
8300175500	9.484163e-001	9.129324e+001	1.891474e-003	1.390260e+002	1.920938e-003	1.332930e+002	9.522178e-001	8.610451e+001
8400174000	9.495973e-001	8.356274e+001	2.198903e-003	1.265646e+002	2.240548e-003	1.305058e+002	9.532290e-001	7.862921e+001
8500172500	9.517953e-001	7.593372e+001	2.580779e-003	1.222584e+002	2.928462e-003	1.144194e+002	9.548835e-001	7.112090e+001
8600171000	9.525040e-001	6.823546e+001	2.585329e-003	1.177823e+002	2.309434e-003	1.106225e+002	9.551944e-001	6.360074e+001
8700169500	9.535793e-001	6.052275e+001	2.266830e-003	1.002291e+002	2.481226e-003	1.124512e+002	9.555840e-001	5.599243e+001
8800168000	9.528935e-001	5.286548e+001	2.880122e-003	1.068117e+002	3.039005e-003	1.023838e+002	9.543028e-001	4.825351e+001
8900166500	9.538872e-001	4.524273e+001	2.719813e-003	8.558799e+001	2.625333e-003	9.789740e+001	9.537073e-001	4.044636e+001
9000165000	9.529187e-001	3.757999e+001	3.035634e-003	8.740109e+001	2.989650e-003	8.605256e+001	9.540480e-001	3.259503e+001
9100163500	9.529357e-001	2.994380e+001	3.352291e-003	7.458897e+001	3.183271e-003	7.599944e+001	9.522166e-001	2.467750e+001
9200162000	9.523890e-001	2.238619e+001	3.337676e-003	6.660785e+001	3.153320e-003	6.832327e+001	9.533195e-001	1.678160e+001
9300160500	9.522716e-001	1.477444e+001	3.376915e-003	5.348818e+001	3.094460e-003	5.834868e+001	9.549392e-001	9.078795e+000
9400159000	9.507019e-001	7.303270e+000	3.513159e-003	5.164622e+001	3.645828e-003	4.870241e+001	9.569568e-001	1.453772e+000
9500157500	9.526193e-001	-2.792223e-001	3.420222e-003	4.767892e+001	3.538418e-003	4.716250e+001	9.576264e-001	-5.923264e+000
9600156000	9.506644e-001	-7.692604e+000	3.728397e-003	3.422497e+001	3.029002e-003	3.944358e+001	9.585924e-001	-1.308713e+001
9700154500	9.503128e-001	-1.507450e+001	2.939168e-003	3.049341e+001	4.113960e-003	2.901928e+001	9.512807e-001	-2.010698e+001
9800153000	9.497624e-001	-2.251486e+001	3.163178e-003	2.392008e+001	2.538371e-003	-3.812856e-001	9.300245e-001	-2.630081e+001
9900151500	9.529418e-001	-2.991497e+001	3.971294e-003	1.516089e+001	2.457950e-003	2.852605e+001	9.054904e-001	-3.081138e+001
10000150000	9.501899e-001	-3.728265e+001	3.153088e-003	8.780757e+000	3.945534e-003	-2.504633e+000	9.545977e-001	-3.031664e+001
10100148500	9.510299e-001	-4.465649e+001	2.678259e-003	-8.099507e+000	3.104998e-003	-5.191830e+000	1.138289e+000	-4.212105e+001
10200147000	9.508171e-001	-5.197627e+001	5.120721e-003	1.961782e+000	4.510228e-003	1.188830e+001	1.072984e+000	-5.574958e+001
10300145500	9.516672e-001	-5.942174e+001	3.897724e-003	-1.506268e+001	2.977226e-003	-2.092205e+001	1.013058e+000	-6.414430e+001
10400144000	9.482512e-001	-6.690538e+001	3.971332e-003	-1.840928e+001	3.501001e-003	-1.346176e+001	9.669751e-001	-7.085178e+001
10500142500	9.467919e-001	-7.437730e+001	4.600942e-003	-2.197191e+001	3.160703e-003	-2.091768e+001	9.508695e-001	-7.863116e+001
10600141000	9.455729e-001	-8.174155e+001	4.284906e-003	-3.436773e+001	3.784043e-003	-3.697239e+001	9.328269e-001	-8.638185e+001
10700139500	9.460141e-001	-8.933602e+001	3.507243e-003	-4.679525e+001	4.085329e-003	-3.846084e+001	9.205494e-001	-9.438477e+001
10800138000	9.437690e-001	-9.679924e+001	4.322775e-003	-4.167318e+001	4.012258e-003	-5.046815e+001	9.125981e-001	-1.025973e+002
10900136500	9.430186e-001	-1.044056e+002	4.464958e-003	-4.639993e+001	4.118235e-003	-4.855727e+001	9.032870e-001	-1.108851e+002
11000135000	9.419091e-001	-1.119614e+002	3.834992e-003	-5.929907e+001	3.904087e-003	-5.788769e+001	9.007178e-001	-1.192740e+002
11100133500	9.382367e-001	-1.195630e+002	4.384257e-003	-6.239679e+001	3.715988e-003	-6.287900e+001	8.999893e-001	-1.273308e+002
11200132000	9.412205e-001	-1.269620e+002	4.377770e-003	-7.167280e+001	4.474999e-003	-7.029686e+001	9.047637e-001	-1.351407e+002
11300130500	9.390161e-001	-1.343996e+002	4.592380e-003	-7.545944e+001	4.076591e-003	-7.731773e+001	9.113641e-001	-1.428975e+002
11400129000	9.411384e-001	-1.418236e+002	4.312247e-003	-8.318237e+001	4.315295e-003	-8.038229e+001	9.199992e-001	-1.503028e+002
11500127500	9.418402e-001	-1.493250e+002	4.597047e-003	-8.656218e+001	4.625290e-003	-9.004068e+001	9.294979e-001	-1.577257e+002
11600126000	9.428476e-001	-1.569633e+002	4.338400e-003	-9.858237e+001	4.273419e-003	-9.074061e+001	9.383448e-001	-1.648036e+002
11700124500	9.442645e-001	-1.645370e+002	5.012412e-003	-9.578422e+001	5.050494e-003	-9.524321e+001	9.466761e-001	-1.718137e+002
11800123000	9.422901e-001	-1.721714e+002	5.961884e-003	-1.050852e+002	5.425511e-003	-1.095778e+002	9.507829e-001	-1.788356e+002
11900121500	9.384711e-001	-1.798070e+002	5.456815e-003	-1.113920e+002	5.641994e-003	-1.087637e+002	9.510372e-001	1.742887e+002
12000120000	9.351750e-001	1.727542e+002	5.896917e-003	-1.079959e+002	6.291027e-003	-1.089136e+002	9.543141e-001	1.676046e+002
12100118500	9.385313e-001	1.652789e+002	6.092089e-003	-1.173983e+002	5.986783e-003	-1.159636e+002	9.654273e-001	1.608484e+002
12200117000	9.426034e-001	1.570236e+002	6.603466e-003	-1.176029e+002	6.208252e-003	-1.233149e+002	9.764966e-001	1.536449e+002
12300115500	9.358359e-001	1.496285e+002	7.779821e-003	-1.274994e+002	6.888713e-003	-1.330596e+002	9.839794e-001	1.462016e+002
12400114000	9.302336e-001	1.418892e+002	7.266592e-003	-1.353200e+002	7.616571e-003	-1.457012e+002	9.911014e-001	1.380228e+002
12500112500	9.363520e-001	1.344021e+002	7.560778e-003	-1.407493e+002	8.161927e-003	-1.475217e+002	9.847085e-001	1.306886e+002
12600111000	9.305446e-001	1.258814e+002	7.974769e-003	-1.564014e+002	8.209578e-003	-1.547637e+002	9.936264e-001	1.224297e+002
12700109500	9.273150e-001	1.190728e+002	9.410844e-003	-1.585370e+002	9.710366e-003	-1.596284e+002	9.740309e-001	1.136554e+002
12800108000	9.300975e-001	1.115346e+002	9.605580e-003	-1.646249e+002	9.768356e-003	-1.663076e+002	9.584494e-001	1.067222e+002
12900106500	9.219905e-001	1.042792e+002	1.116665e-002	-1.742508e+002	1.082921e-002	-1.761669e+002	9.472730e-001	9.916385e+001
13000105000	9.335475e-001	9.697305e+001	1.158887e-002	1.756398e+002	1.151355e-002	1.776053e+002	9.364413e-001	9.130393e+001
13100103500	9.324660e-001	8.923139e+001	1.292222e-002	1.687144e+002	1.246210e-002	1.686666e+002	9.339872e-001	8.432972e+001
13200102000	9.302648e-001	8.168136e+001	1.344460e-002	1.586222e+002	1.354862e-002	1.626823e+002	9.334238e-001	7.651568e+001
13300100500	9.310615e-001	7.391521e+001	1.473269e-002	1.489461e+002	1.377350e-002	1.490016e+002	9.295884e-001	6.855505e+001
13400099000	9.316702e-001	6.629220e+001	1.575936e-002	1.426891e+002	1.534241e-002	1.396500e+002	9.330402e-001	6.082183e+001
13500097500	9.278945e-001	5.850584e+001	1.662198e-002	1.324015e+002	1.716652e-002	1.316994e+002	9.410968e-001	5.312231e+001
13600096000	9.235467e-001	5.088415e+001	1.800424e-002	1.208347e+002	1.669975e-002	1.208151e+002	9.489965e-001	4.526487e+001
13700094500	9.241025e-001	4.302045e+001	1.845120e-002	1.120039e+002	1.807553e-002	1.096085e+002	9.544448e-001	3.739128e+001
13800093000	9.174894e-001	3.538165e+001	1.946657e-002	9.871747e+001	2.037762e-002	9.868548e+001	9.619262e-001	2.919644e+001
13900091500	9.210836e-001	2.762925e+001	2.050305e-002	8.745418e+001	2.076630e-002	8.946220e+001	9.527267e-001	2.194489e+001
14000090000	9.166394e-001	1.970408e+001	2.119358e-002	7.857092e+001	2.134823e-002	7.832730e+001	9.565791e-001	1.482852e+001
14100088500	9.181846e-001	1.233989e+001	2.157898e-002	6.767589e+001	2.173459e-002	6.752261e+001	9.528171e-001	7.526220e+000
14200087000	9.209059e-001	4.628586e+000	2.280299e-002	5.716666e+001	2.291381e-002	5.733240e+001	9.495418e-001	-5.065865e-002
14300085500	9.154653e-001	-3.380602e+000	2.318277e-002	4.894093e+001	2.238462e-002	4.812278e+001	9.382500e-001	-7.505477e+000
14400084000	9.203771e-001	-1.111323e+001	2.439541e-002	3.764691e+001	2.422753e-002	3.759232e+001	9.238166e-001	-1.496925e+001
14500082500	9.140294e-001	-1.851810e+001	2.457868e-002	2.609773e+001	2.557334e-002	2.502596e+001	9.155255e-001	-2.248642e+001
14600081000	9.142193e-001	-2.597994e+001	2.535770e-002	1.488860e+001	2.562338e-002	1.641495e+001	9.082715e-001	-3.069170e+001
14700079500	9.138773e-001	-3.391239e+001	2.579428e-002	4.377816e+000	2.554838e-002	3.795801e+000	9.037887e-001	-3.901388e+001
14800078000	9.080008e-001	-4.160538e+001	2.621016e-002	-7.663618e+000	2.621622e-002	-6.948763e+000	9.009583e-001	-4.759359e+001
14900076500	9.033186e-001	-4.939619e+001	2.638339e-002	-2.120572e+001	2.625881e-002	-2.008503e+001	8.995346e-001	-5.632401e+001
15000075000	9.000419e-001	-5.728641e+001	2.725198e-002	-3.285294e+001	2.647044e-002	-3.308708e+001	9.012907e-001	-6.473075e+001
15100073500	8.966115e-001	-6.494972e+001	2.540633e-002	-4.785627e+001	2.564611e-002	-4.580926e+001	9.090712e-001	-7.308760e+001
15200072000	8.956629e-001	-7.265085e+001	2.323913e-002	-6.246862e+001	2.366383e-002	-6.336033e+001	9.233744e-001	-8.143664e+001
15300070500	8.943525e-001	-8.020836e+001	1.978958e-002	-6.760729e+001	2.032475e-002	-6.781999e+001	9.262033e-001	-9.041099e+001
15400069000	9.009139e-001	-8.830725e+001	2.064862e-002	-7.138369e+001	2.076540e-002	-7.037001e+001	9.236660e-001	-9.826257e+001
15500067500	9.019932e-001	-9.658409e+001	2.097340e-002	-8.068701e+001	2.180557e-002	-8.126725e+001	9.251552e-001	-1.059066e+002
15600066000	8.995901e-001	-1.047421e+002	2.055778e-002	-9.027226e+001	2.083189e-002	-9.063334e+001	9.207297e-001	-1.135418e+002
