!Agilent Technologies,E5071C,MY46107443,A.09.30
!Date: Wed Jun 12 17:45:15 2013
!Data & Calibration Information:
!Freq	S11:SOLT1(ON)	S21:NONE(--)	S12:NONE(--)	S22:NONE(--)
# Hz S dB R 50
2000000000	-1.412361e+001	-1.173965e+002	1.242551e+001	-1.600579e+002	-2.000000e+002	0.000000e+000	-2.000000e+002	0.000000e+000
2005000000	-1.474046e+001	-1.188360e+002	1.239787e+001	-1.752483e+002	-2.000000e+002	0.000000e+000	-2.000000e+002	0.000000e+000
2010000000	-1.534067e+001	-1.201398e+002	1.237171e+001	1.695764e+002	-2.000000e+002	0.000000e+000	-2.000000e+002	0.000000e+000
2015000000	-1.589950e+001	-1.215296e+002	1.234611e+001	1.544138e+002	-2.000000e+002	0.000000e+000	-2.000000e+002	0.000000e+000
2020000000	-1.635944e+001	-1.227187e+002	1.232383e+001	1.392602e+002	-2.000000e+002	0.000000e+000	-2.000000e+002	0.000000e+000
2025000000	-1.666880e+001	-1.236401e+002	1.230553e+001	1.241186e+002	-2.000000e+002	0.000000e+000	-2.000000e+002	0.000000e+000
2030000000	-1.673175e+001	-1.244601e+002	1.228866e+001	1.089754e+002	-2.000000e+002	0.000000e+000	-2.000000e+002	0.000000e+000
2035000000	-1.658246e+001	-1.252568e+002	1.227097e+001	9.380093e+001	-2.000000e+002	0.000000e+000	-2.000000e+002	0.000000e+000
2040000000	-1.622697e+001	-1.260997e+002	1.225544e+001	7.866661e+001	-2.000000e+002	0.000000e+000	-2.000000e+002	0.000000e+000
2045000000	-1.568011e+001	-1.269037e+002	1.224336e+001	6.350788e+001	-2.000000e+002	0.000000e+000	-2.000000e+002	0.000000e+000
2050000000	-1.502291e+001	-1.279911e+002	1.223558e+001	4.834171e+001	-2.000000e+002	0.000000e+000	-2.000000e+002	0.000000e+000
2055000000	-1.434680e+001	-1.294525e+002	1.221108e+001	3.314364e+001	-2.000000e+002	0.000000e+000	-2.000000e+002	0.000000e+000
2060000000	-1.366179e+001	-1.309443e+002	1.219186e+001	1.794383e+001	-2.000000e+002	0.000000e+000	-2.000000e+002	0.000000e+000
2065000000	-1.304983e+001	-1.328513e+002	1.216782e+001	2.710886e+000	-2.000000e+002	0.000000e+000	-2.000000e+002	0.000000e+000
2070000000	-1.254422e+001	-1.347765e+002	1.214378e+001	-1.248387e+001	-2.000000e+002	0.000000e+000	-2.000000e+002	0.000000e+000
2075000000	-1.214899e+001	-1.368759e+002	1.211719e+001	-2.769640e+001	-2.000000e+002	0.000000e+000	-2.000000e+002	0.000000e+000
2080000000	-1.192087e+001	-1.390840e+002	1.209064e+001	-4.287001e+001	-2.000000e+002	0.000000e+000	-2.000000e+002	0.000000e+000
2085000000	-1.185962e+001	-1.411435e+002	1.206482e+001	-5.804926e+001	-2.000000e+002	0.000000e+000	-2.000000e+002	0.000000e+000
2090000000	-1.195299e+001	-1.432533e+002	1.203689e+001	-7.322036e+001	-2.000000e+002	0.000000e+000	-2.000000e+002	0.000000e+000
2095000000	-1.221447e+001	-1.453742e+002	1.200962e+001	-8.839055e+001	-2.000000e+002	0.000000e+000	-2.000000e+002	0.000000e+000
2100000000	-1.265692e+001	-1.472588e+002	1.198178e+001	-1.035206e+002	-2.000000e+002	0.000000e+000	-2.000000e+002	0.000000e+000
2105000000	-1.326140e+001	-1.489065e+002	1.195280e+001	-1.186220e+002	-2.000000e+002	0.000000e+000	-2.000000e+002	0.000000e+000
2110000000	-1.402669e+001	-1.502112e+002	1.192514e+001	-1.337016e+002	-2.000000e+002	0.000000e+000	-2.000000e+002	0.000000e+000
2115000000	-1.489434e+001	-1.510099e+002	1.190026e+001	-1.487793e+002	-2.000000e+002	0.000000e+000	-2.000000e+002	0.000000e+000
2120000000	-1.585981e+001	-1.511974e+002	1.188150e+001	-1.638612e+002	-2.000000e+002	0.000000e+000	-2.000000e+002	0.000000e+000
2125000000	-1.680480e+001	-1.504399e+002	1.186871e+001	-1.789312e+002	-2.000000e+002	0.000000e+000	-2.000000e+002	0.000000e+000
2130000000	-1.757332e+001	-1.492348e+002	1.185635e+001	1.659929e+002	-2.000000e+002	0.000000e+000	-2.000000e+002	0.000000e+000
2135000000	-1.806263e+001	-1.477701e+002	1.185544e+001	1.508837e+002	-2.000000e+002	0.000000e+000	-2.000000e+002	0.000000e+000
2140000000	-1.820263e+001	-1.465987e+002	1.184973e+001	1.357439e+002	-2.000000e+002	0.000000e+000	-2.000000e+002	0.000000e+000
2145000000	-1.791606e+001	-1.465944e+002	1.185136e+001	1.205672e+002	-2.000000e+002	0.000000e+000	-2.000000e+002	0.000000e+000
2150000000	-1.735301e+001	-1.478748e+002	1.185445e+001	1.053563e+002	-2.000000e+002	0.000000e+000	-2.000000e+002	0.000000e+000
2155000000	-1.655823e+001	-1.506492e+002	1.185144e+001	9.010155e+001	-2.000000e+002	0.000000e+000	-2.000000e+002	0.000000e+000
2160000000	-1.566004e+001	-1.543096e+002	1.184342e+001	7.481179e+001	-2.000000e+002	0.000000e+000	-2.000000e+002	0.000000e+000
2165000000	-1.474671e+001	-1.585542e+002	1.183131e+001	5.951596e+001	-2.000000e+002	0.000000e+000	-2.000000e+002	0.000000e+000
2170000000	-1.391564e+001	-1.630003e+002	1.180648e+001	4.418647e+001	-2.000000e+002	0.000000e+000	-2.000000e+002	0.000000e+000
2175000000	-1.321087e+001	-1.672502e+002	1.177451e+001	2.888421e+001	-2.000000e+002	0.000000e+000	-2.000000e+002	0.000000e+000
2180000000	-1.263965e+001	-1.713949e+002	1.173546e+001	1.357210e+001	-2.000000e+002	0.000000e+000	-2.000000e+002	0.000000e+000
2185000000	-1.226526e+001	-1.749506e+002	1.169036e+001	-1.647093e+000	-2.000000e+002	0.000000e+000	-2.000000e+002	0.000000e+000
2190000000	-1.206124e+001	-1.780458e+002	1.164529e+001	-1.682862e+001	-2.000000e+002	0.000000e+000	-2.000000e+002	0.000000e+000
2195000000	-1.203144e+001	1.793949e+002	1.160225e+001	-3.195288e+001	-2.000000e+002	0.000000e+000	-2.000000e+002	0.000000e+000
2200000000	-1.216918e+001	1.774807e+002	1.155854e+001	-4.704473e+001	-2.000000e+002	0.000000e+000	-2.000000e+002	0.000000e+000
2205000000	-1.247985e+001	1.760254e+002	1.152200e+001	-6.208234e+001	-2.000000e+002	0.000000e+000	-2.000000e+002	0.000000e+000
2210000000	-1.294373e+001	1.755097e+002	1.149258e+001	-7.711225e+001	-2.000000e+002	0.000000e+000	-2.000000e+002	0.000000e+000
2215000000	-1.353204e+001	1.755133e+002	1.146737e+001	-9.212619e+001	-2.000000e+002	0.000000e+000	-2.000000e+002	0.000000e+000
2220000000	-1.417722e+001	1.764657e+002	1.145082e+001	-1.071485e+002	-2.000000e+002	0.000000e+000	-2.000000e+002	0.000000e+000
2225000000	-1.488253e+001	1.781384e+002	1.143954e+001	-1.221718e+002	-2.000000e+002	0.000000e+000	-2.000000e+002	0.000000e+000
2230000000	-1.551421e+001	-1.797643e+002	1.143353e+001	-1.372438e+002	-2.000000e+002	0.000000e+000	-2.000000e+002	0.000000e+000
2235000000	-1.604828e+001	-1.772496e+002	1.143598e+001	-1.523329e+002	-2.000000e+002	0.000000e+000	-2.000000e+002	0.000000e+000
2240000000	-1.643033e+001	-1.752293e+002	1.143643e+001	-1.674725e+002	-2.000000e+002	0.000000e+000	-2.000000e+002	0.000000e+000
2245000000	-1.659085e+001	-1.742656e+002	1.143656e+001	1.773405e+002	-2.000000e+002	0.000000e+000	-2.000000e+002	0.000000e+000
2250000000	-1.661291e+001	-1.748156e+002	1.143450e+001	1.621160e+002	-2.000000e+002	0.000000e+000	-2.000000e+002	0.000000e+000
2255000000	-1.649094e+001	-1.770185e+002	1.142585e+001	1.468606e+002	-2.000000e+002	0.000000e+000	-2.000000e+002	0.000000e+000
2260000000	-1.625498e+001	1.793178e+002	1.141237e+001	1.316014e+002	-2.000000e+002	0.000000e+000	-2.000000e+002	0.000000e+000
2265000000	-1.591381e+001	1.747041e+002	1.139616e+001	1.163433e+002	-2.000000e+002	0.000000e+000	-2.000000e+002	0.000000e+000
2270000000	-1.550201e+001	1.696215e+002	1.137271e+001	1.010699e+002	-2.000000e+002	0.000000e+000	-2.000000e+002	0.000000e+000
2275000000	-1.501397e+001	1.645273e+002	1.134582e+001	8.583343e+001	-2.000000e+002	0.000000e+000	-2.000000e+002	0.000000e+000
2280000000	-1.450272e+001	1.595771e+002	1.131333e+001	7.058051e+001	-2.000000e+002	0.000000e+000	-2.000000e+002	0.000000e+000
2285000000	-1.403389e+001	1.555920e+002	1.128049e+001	5.538705e+001	-2.000000e+002	0.000000e+000	-2.000000e+002	0.000000e+000
2290000000	-1.359815e+001	1.521534e+002	1.124560e+001	4.021163e+001	-2.000000e+002	0.000000e+000	-2.000000e+002	0.000000e+000
2295000000	-1.322897e+001	1.495351e+002	1.120976e+001	2.504492e+001	-2.000000e+002	0.000000e+000	-2.000000e+002	0.000000e+000
2300000000	-1.293955e+001	1.475656e+002	1.117813e+001	9.908714e+000	-2.000000e+002	0.000000e+000	-2.000000e+002	0.000000e+000
2305000000	-1.272599e+001	1.464203e+002	1.114844e+001	-5.210687e+000	-2.000000e+002	0.000000e+000	-2.000000e+002	0.000000e+000
2310000000	-1.260275e+001	1.457418e+002	1.111857e+001	-2.033183e+001	-2.000000e+002	0.000000e+000	-2.000000e+002	0.000000e+000
2315000000	-1.255528e+001	1.454667e+002	1.109089e+001	-3.542878e+001	-2.000000e+002	0.000000e+000	-2.000000e+002	0.000000e+000
2320000000	-1.259677e+001	1.455925e+002	1.106319e+001	-5.051628e+001	-2.000000e+002	0.000000e+000	-2.000000e+002	0.000000e+000
2325000000	-1.271818e+001	1.458649e+002	1.104060e+001	-6.558919e+001	-2.000000e+002	0.000000e+000	-2.000000e+002	0.000000e+000
2330000000	-1.290799e+001	1.463388e+002	1.102080e+001	-8.067410e+001	-2.000000e+002	0.000000e+000	-2.000000e+002	0.000000e+000
2335000000	-1.317077e+001	1.468355e+002	1.100452e+001	-9.576581e+001	-2.000000e+002	0.000000e+000	-2.000000e+002	0.000000e+000
2340000000	-1.350592e+001	1.474156e+002	1.098713e+001	-1.108461e+002	-2.000000e+002	0.000000e+000	-2.000000e+002	0.000000e+000
2345000000	-1.389180e+001	1.479388e+002	1.097309e+001	-1.259390e+002	-2.000000e+002	0.000000e+000	-2.000000e+002	0.000000e+000
2350000000	-1.428345e+001	1.481403e+002	1.095506e+001	-1.410445e+002	-2.000000e+002	0.000000e+000	-2.000000e+002	0.000000e+000
2355000000	-1.472024e+001	1.479946e+002	1.094718e+001	-1.561245e+002	-2.000000e+002	0.000000e+000	-2.000000e+002	0.000000e+000
2360000000	-1.513798e+001	1.477092e+002	1.094259e+001	-1.712476e+002	-2.000000e+002	0.000000e+000	-2.000000e+002	0.000000e+000
2365000000	-1.547411e+001	1.467962e+002	1.093530e+001	1.736217e+002	-2.000000e+002	0.000000e+000	-2.000000e+002	0.000000e+000
2370000000	-1.570977e+001	1.453954e+002	1.093127e+001	1.584568e+002	-2.000000e+002	0.000000e+000	-2.000000e+002	0.000000e+000
2375000000	-1.580521e+001	1.433496e+002	1.092851e+001	1.432695e+002	-2.000000e+002	0.000000e+000	-2.000000e+002	0.000000e+000
2380000000	-1.573446e+001	1.407779e+002	1.092140e+001	1.280344e+002	-2.000000e+002	0.000000e+000	-2.000000e+002	0.000000e+000
2385000000	-1.550346e+001	1.378166e+002	1.091251e+001	1.127725e+002	-2.000000e+002	0.000000e+000	-2.000000e+002	0.000000e+000
2390000000	-1.512768e+001	1.344077e+002	1.089593e+001	9.750294e+001	-2.000000e+002	0.000000e+000	-2.000000e+002	0.000000e+000
2395000000	-1.464028e+001	1.311974e+002	1.087533e+001	8.220991e+001	-2.000000e+002	0.000000e+000	-2.000000e+002	0.000000e+000
2400000000	-1.409609e+001	1.277499e+002	1.084526e+001	6.693186e+001	-2.000000e+002	0.000000e+000	-2.000000e+002	0.000000e+000
2405000000	-1.355545e+001	1.247168e+002	1.081167e+001	5.168468e+001	-2.000000e+002	0.000000e+000	-2.000000e+002	0.000000e+000
2410000000	-1.307947e+001	1.218842e+002	1.077384e+001	3.648274e+001	-2.000000e+002	0.000000e+000	-2.000000e+002	0.000000e+000
2415000000	-1.267075e+001	1.195937e+002	1.073221e+001	2.128949e+001	-2.000000e+002	0.000000e+000	-2.000000e+002	0.000000e+000
2420000000	-1.234430e+001	1.176584e+002	1.069266e+001	6.157738e+000	-2.000000e+002	0.000000e+000	-2.000000e+002	0.000000e+000
2425000000	-1.214069e+001	1.161830e+002	1.065188e+001	-8.934517e+000	-2.000000e+002	0.000000e+000	-2.000000e+002	0.000000e+000
2430000000	-1.205403e+001	1.150332e+002	1.061693e+001	-2.397687e+001	-2.000000e+002	0.000000e+000	-2.000000e+002	0.000000e+000
2435000000	-1.206428e+001	1.145100e+002	1.059068e+001	-3.902365e+001	-2.000000e+002	0.000000e+000	-2.000000e+002	0.000000e+000
2440000000	-1.216268e+001	1.143287e+002	1.056467e+001	-5.405642e+001	-2.000000e+002	0.000000e+000	-2.000000e+002	0.000000e+000
2445000000	-1.234175e+001	1.145665e+002	1.054655e+001	-6.907687e+001	-2.000000e+002	0.000000e+000	-2.000000e+002	0.000000e+000
2450000000	-1.259935e+001	1.150188e+002	1.053607e+001	-8.410758e+001	-2.000000e+002	0.000000e+000	-2.000000e+002	0.000000e+000
2455000000	-1.288289e+001	1.157656e+002	1.053090e+001	-9.918251e+001	-2.000000e+002	0.000000e+000	-2.000000e+002	0.000000e+000
2460000000	-1.317016e+001	1.166635e+002	1.052534e+001	-1.142719e+002	-2.000000e+002	0.000000e+000	-2.000000e+002	0.000000e+000
2465000000	-1.342940e+001	1.173536e+002	1.052157e+001	-1.294015e+002	-2.000000e+002	0.000000e+000	-2.000000e+002	0.000000e+000
2470000000	-1.367787e+001	1.176803e+002	1.051720e+001	-1.445665e+002	-2.000000e+002	0.000000e+000	-2.000000e+002	0.000000e+000
2475000000	-1.387487e+001	1.172821e+002	1.050971e+001	-1.597489e+002	-2.000000e+002	0.000000e+000	-2.000000e+002	0.000000e+000
2480000000	-1.403230e+001	1.164187e+002	1.050318e+001	-1.749693e+002	-2.000000e+002	0.000000e+000	-2.000000e+002	0.000000e+000
2485000000	-1.410268e+001	1.147633e+002	1.048964e+001	1.698043e+002	-2.000000e+002	0.000000e+000	-2.000000e+002	0.000000e+000
2490000000	-1.411494e+001	1.123388e+002	1.047701e+001	1.545594e+002	-2.000000e+002	0.000000e+000	-2.000000e+002	0.000000e+000
2495000000	-1.405039e+001	1.092221e+002	1.045790e+001	1.393157e+002	-2.000000e+002	0.000000e+000	-2.000000e+002	0.000000e+000
2500000000	-1.391336e+001	1.059948e+002	1.043445e+001	1.241009e+002	-2.000000e+002	0.000000e+000	-2.000000e+002	0.000000e+000
2505000000	-1.372291e+001	1.025750e+002	1.040983e+001	1.089066e+002	-2.000000e+002	0.000000e+000	-2.000000e+002	0.000000e+000
2510000000	-1.343142e+001	9.932146e+001	1.038228e+001	9.369900e+001	-2.000000e+002	0.000000e+000	-2.000000e+002	0.000000e+000
2515000000	-1.313748e+001	9.656102e+001	1.035246e+001	7.852066e+001	-2.000000e+002	0.000000e+000	-2.000000e+002	0.000000e+000
2520000000	-1.281323e+001	9.423399e+001	1.033008e+001	6.335320e+001	-2.000000e+002	0.000000e+000	-2.000000e+002	0.000000e+000
2525000000	-1.248292e+001	9.258058e+001	1.030251e+001	4.818770e+001	-2.000000e+002	0.000000e+000	-2.000000e+002	0.000000e+000
2530000000	-1.216057e+001	9.130487e+001	1.027369e+001	3.301883e+001	-2.000000e+002	0.000000e+000	-2.000000e+002	0.000000e+000
2535000000	-1.186101e+001	9.038246e+001	1.024623e+001	1.784903e+001	-2.000000e+002	0.000000e+000	-2.000000e+002	0.000000e+000
2540000000	-1.160491e+001	8.991480e+001	1.022107e+001	2.686117e+000	-2.000000e+002	0.000000e+000	-2.000000e+002	0.000000e+000
2545000000	-1.136297e+001	8.965777e+001	1.019297e+001	-1.247659e+001	-2.000000e+002	0.000000e+000	-2.000000e+002	0.000000e+000
2550000000	-1.121483e+001	8.944947e+001	1.016273e+001	-2.762976e+001	-2.000000e+002	0.000000e+000	-2.000000e+002	0.000000e+000
2555000000	-1.111524e+001	8.923052e+001	1.012859e+001	-4.274459e+001	-2.000000e+002	0.000000e+000	-2.000000e+002	0.000000e+000
2560000000	-1.109641e+001	8.898974e+001	1.010070e+001	-5.781617e+001	-2.000000e+002	0.000000e+000	-2.000000e+002	0.000000e+000
2565000000	-1.118807e+001	8.874207e+001	1.007074e+001	-7.290131e+001	-2.000000e+002	0.000000e+000	-2.000000e+002	0.000000e+000
2570000000	-1.133240e+001	8.834521e+001	1.004263e+001	-8.795719e+001	-2.000000e+002	0.000000e+000	-2.000000e+002	0.000000e+000
2575000000	-1.156986e+001	8.788871e+001	1.002068e+001	-1.029680e+002	-2.000000e+002	0.000000e+000	-2.000000e+002	0.000000e+000
2580000000	-1.187908e+001	8.732665e+001	1.000286e+001	-1.180060e+002	-2.000000e+002	0.000000e+000	-2.000000e+002	0.000000e+000
2585000000	-1.225470e+001	8.675410e+001	9.996304e+000	-1.329952e+002	-2.000000e+002	0.000000e+000	-2.000000e+002	0.000000e+000
2590000000	-1.263581e+001	8.611747e+001	9.996750e+000	-1.480590e+002	-2.000000e+002	0.000000e+000	-2.000000e+002	0.000000e+000
2595000000	-1.301377e+001	8.572332e+001	1.000400e+001	-1.631447e+002	-2.000000e+002	0.000000e+000	-2.000000e+002	0.000000e+000
2600000000	-1.331500e+001	8.521448e+001	1.001529e+001	-1.782696e+002	-2.000000e+002	0.000000e+000	-2.000000e+002	0.000000e+000
2605000000	-1.349069e+001	8.461157e+001	1.002611e+001	1.665193e+002	-2.000000e+002	0.000000e+000	-2.000000e+002	0.000000e+000
2610000000	-1.350652e+001	8.376515e+001	1.003734e+001	1.512350e+002	-2.000000e+002	0.000000e+000	-2.000000e+002	0.000000e+000
2615000000	-1.333723e+001	8.254603e+001	1.003756e+001	1.358775e+002	-2.000000e+002	0.000000e+000	-2.000000e+002	0.000000e+000
2620000000	-1.299717e+001	8.085838e+001	1.002935e+001	1.204698e+002	-2.000000e+002	0.000000e+000	-2.000000e+002	0.000000e+000
2625000000	-1.253852e+001	7.861940e+001	1.000909e+001	1.050225e+002	-2.000000e+002	0.000000e+000	-2.000000e+002	0.000000e+000
2630000000	-1.200240e+001	7.596140e+001	9.973935e+000	8.959388e+001	-2.000000e+002	0.000000e+000	-2.000000e+002	0.000000e+000
2635000000	-1.144836e+001	7.307669e+001	9.921441e+000	7.417642e+001	-2.000000e+002	0.000000e+000	-2.000000e+002	0.000000e+000
2640000000	-1.094384e+001	7.006222e+001	9.855224e+000	5.886091e+001	-2.000000e+002	0.000000e+000	-2.000000e+002	0.000000e+000
2645000000	-1.048071e+001	6.710539e+001	9.784792e+000	4.361219e+001	-2.000000e+002	0.000000e+000	-2.000000e+002	0.000000e+000
2650000000	-1.013228e+001	6.437218e+001	9.709585e+000	2.849446e+001	-2.000000e+002	0.000000e+000	-2.000000e+002	0.000000e+000
2655000000	-9.894239e+000	6.195872e+001	9.638237e+000	1.349547e+001	-2.000000e+002	0.000000e+000	-2.000000e+002	0.000000e+000
2660000000	-9.783094e+000	5.993056e+001	9.575390e+000	-1.409582e+000	-2.000000e+002	0.000000e+000	-2.000000e+002	0.000000e+000
2665000000	-9.788945e+000	5.834383e+001	9.526781e+000	-1.623125e+001	-2.000000e+002	0.000000e+000	-2.000000e+002	0.000000e+000
2670000000	-9.917759e+000	5.730380e+001	9.494209e+000	-3.102365e+001	-2.000000e+002	0.000000e+000	-2.000000e+002	0.000000e+000
2675000000	-1.014455e+001	5.677392e+001	9.481554e+000	-4.577508e+001	-2.000000e+002	0.000000e+000	-2.000000e+002	0.000000e+000
2680000000	-1.045489e+001	5.699425e+001	9.489091e+000	-6.056240e+001	-2.000000e+002	0.000000e+000	-2.000000e+002	0.000000e+000
2685000000	-1.081838e+001	5.780345e+001	9.512585e+000	-7.544271e+001	-2.000000e+002	0.000000e+000	-2.000000e+002	0.000000e+000
2690000000	-1.119715e+001	5.939755e+001	9.547930e+000	-9.044197e+001	-2.000000e+002	0.000000e+000	-2.000000e+002	0.000000e+000
2695000000	-1.152384e+001	6.139296e+001	9.589381e+000	-1.055412e+002	-2.000000e+002	0.000000e+000	-2.000000e+002	0.000000e+000
2700000000	-1.173060e+001	6.384500e+001	9.627928e+000	-1.207934e+002	-2.000000e+002	0.000000e+000	-2.000000e+002	0.000000e+000
2705000000	-1.178583e+001	6.591859e+001	9.660087e+000	-1.361960e+002	-2.000000e+002	0.000000e+000	-2.000000e+002	0.000000e+000
2710000000	-1.169832e+001	6.721117e+001	9.675178e+000	-1.516848e+002	-2.000000e+002	0.000000e+000	-2.000000e+002	0.000000e+000
2715000000	-1.148356e+001	6.744908e+001	9.667905e+000	-1.672527e+002	-2.000000e+002	0.000000e+000	-2.000000e+002	0.000000e+000
2720000000	-1.120171e+001	6.620783e+001	9.642565e+000	1.771837e+002	-2.000000e+002	0.000000e+000	-2.000000e+002	0.000000e+000
2725000000	-1.088526e+001	6.387688e+001	9.592838e+000	1.616553e+002	-2.000000e+002	0.000000e+000	-2.000000e+002	0.000000e+000
2730000000	-1.056891e+001	6.052303e+001	9.523992e+000	1.461968e+002	-2.000000e+002	0.000000e+000	-2.000000e+002	0.000000e+000
2735000000	-1.026700e+001	5.659947e+001	9.447108e+000	1.308839e+002	-2.000000e+002	0.000000e+000	-2.000000e+002	0.000000e+000
2740000000	-1.000211e+001	5.230468e+001	9.357364e+000	1.156713e+002	-2.000000e+002	0.000000e+000	-2.000000e+002	0.000000e+000
2745000000	-9.771238e+000	4.805426e+001	9.270718e+000	1.006059e+002	-2.000000e+002	0.000000e+000	-2.000000e+002	0.000000e+000
2750000000	-9.581908e+000	4.398928e+001	9.192445e+000	8.569508e+001	-2.000000e+002	0.000000e+000	-2.000000e+002	0.000000e+000
2755000000	-9.464137e+000	4.051993e+001	9.128175e+000	7.085804e+001	-2.000000e+002	0.000000e+000	-2.000000e+002	0.000000e+000
2760000000	-9.409805e+000	3.760468e+001	9.081963e+000	5.608758e+001	-2.000000e+002	0.000000e+000	-2.000000e+002	0.000000e+000
2765000000	-9.405621e+000	3.552003e+001	9.053918e+000	4.134739e+001	-2.000000e+002	0.000000e+000	-2.000000e+002	0.000000e+000
2770000000	-9.450602e+000	3.415075e+001	9.043051e+000	2.659428e+001	-2.000000e+002	0.000000e+000	-2.000000e+002	0.000000e+000
2775000000	-9.554313e+000	3.370339e+001	9.048179e+000	1.180206e+001	-2.000000e+002	0.000000e+000	-2.000000e+002	0.000000e+000
