!Agilent Technologies,E5071C,MY46107443,A.09.30
!Date: Wed Jun 12 17:49:25 2013
!Data & Calibration Information:
!Freq	S11:SOLT1(ON)
# Hz S dB R 50
2000000000	-1.569918e+000	-3.203257e+000
2005000000	-1.575618e+000	-3.506286e+000
2010000000	-1.593017e+000	-3.787218e+000
2015000000	-1.612955e+000	-4.055285e+000
2020000000	-1.639929e+000	-4.384995e+000
2025000000	-1.676573e+000	-4.844098e+000
2030000000	-1.713414e+000	-5.388436e+000
2035000000	-1.753992e+000	-6.031769e+000
2040000000	-1.792867e+000	-6.898411e+000
2045000000	-1.832578e+000	-7.970614e+000
2050000000	-1.874676e+000	-9.182517e+000
2055000000	-1.894451e+000	-1.055697e+001
2060000000	-1.921650e+000	-1.205134e+001
2065000000	-1.935934e+000	-1.368109e+001
2070000000	-1.945045e+000	-1.530723e+001
2075000000	-1.937526e+000	-1.693583e+001
2080000000	-1.933110e+000	-1.849740e+001
2085000000	-1.906848e+000	-2.001113e+001
2090000000	-1.895320e+000	-2.127116e+001
2095000000	-1.866863e+000	-2.242369e+001
2100000000	-1.850217e+000	-2.334001e+001
2105000000	-1.830070e+000	-2.405041e+001
2110000000	-1.820424e+000	-2.458948e+001
2115000000	-1.810499e+000	-2.497469e+001
2120000000	-1.819257e+000	-2.522692e+001
2125000000	-1.820855e+000	-2.537455e+001
2130000000	-1.845258e+000	-2.550519e+001
2135000000	-1.870154e+000	-2.559552e+001
2140000000	-1.910574e+000	-2.573130e+001
2145000000	-1.958621e+000	-2.596728e+001
2150000000	-2.007509e+000	-2.632377e+001
2155000000	-2.058751e+000	-2.687088e+001
2160000000	-2.124259e+000	-2.763514e+001
2165000000	-2.180246e+000	-2.855144e+001
2170000000	-2.236056e+000	-2.974912e+001
2175000000	-2.292016e+000	-3.120480e+001
2180000000	-2.336856e+000	-3.276988e+001
2185000000	-2.383899e+000	-3.455173e+001
2190000000	-2.408489e+000	-3.640437e+001
2195000000	-2.423925e+000	-3.821474e+001
2200000000	-2.426161e+000	-4.001435e+001
2205000000	-2.417097e+000	-4.170483e+001
2210000000	-2.406294e+000	-4.325996e+001
2215000000	-2.385102e+000	-4.457114e+001
2220000000	-2.367259e+000	-4.570918e+001
2225000000	-2.347445e+000	-4.665098e+001
2230000000	-2.338191e+000	-4.732799e+001
2235000000	-2.331287e+000	-4.789298e+001
2240000000	-2.339013e+000	-4.824249e+001
2245000000	-2.363421e+000	-4.852675e+001
2250000000	-2.396103e+000	-4.871626e+001
2255000000	-2.431063e+000	-4.885520e+001
2260000000	-2.486596e+000	-4.904871e+001
2265000000	-2.551900e+000	-4.928613e+001
2270000000	-2.625797e+000	-4.978877e+001
2275000000	-2.716903e+000	-5.037033e+001
2280000000	-2.812540e+000	-5.118912e+001
2285000000	-2.919387e+000	-5.226440e+001
2290000000	-3.013271e+000	-5.359180e+001
2295000000	-3.108242e+000	-5.511095e+001
2300000000	-3.197311e+000	-5.687326e+001
2305000000	-3.269983e+000	-5.875566e+001
2310000000	-3.323033e+000	-6.074969e+001
2315000000	-3.369378e+000	-6.281272e+001
2320000000	-3.392391e+000	-6.489627e+001
2325000000	-3.411449e+000	-6.689972e+001
2330000000	-3.413677e+000	-6.874750e+001
2335000000	-3.415870e+000	-7.042650e+001
2340000000	-3.416273e+000	-7.188091e+001
2345000000	-3.420215e+000	-7.307882e+001
2350000000	-3.432591e+000	-7.406271e+001
2355000000	-3.444413e+000	-7.484788e+001
2360000000	-3.483612e+000	-7.543758e+001
2365000000	-3.524419e+000	-7.589886e+001
2370000000	-3.593728e+000	-7.624247e+001
2375000000	-3.675661e+000	-7.659821e+001
2380000000	-3.770338e+000	-7.696850e+001
2385000000	-3.888016e+000	-7.747431e+001
2390000000	-4.028944e+000	-7.813177e+001
2395000000	-4.185737e+000	-7.907781e+001
2400000000	-4.353657e+000	-8.020065e+001
2405000000	-4.535325e+000	-8.167119e+001
2410000000	-4.717921e+000	-8.335888e+001
2415000000	-4.904683e+000	-8.534988e+001
2420000000	-5.080217e+000	-8.756578e+001
2425000000	-5.253320e+000	-8.995455e+001
2430000000	-5.397157e+000	-9.247780e+001
2435000000	-5.533824e+000	-9.500360e+001
2440000000	-5.638710e+000	-9.759308e+001
2445000000	-5.732446e+000	-9.999076e+001
2450000000	-5.813731e+000	-1.022521e+002
2455000000	-5.886218e+000	-1.042202e+002
2460000000	-5.957287e+000	-1.060012e+002
2465000000	-6.045499e+000	-1.075083e+002
2470000000	-6.146808e+000	-1.088234e+002
2475000000	-6.264152e+000	-1.099333e+002
2480000000	-6.422072e+000	-1.109814e+002
2485000000	-6.625043e+000	-1.119903e+002
2490000000	-6.875501e+000	-1.129786e+002
2495000000	-7.164310e+000	-1.140289e+002
2500000000	-7.499607e+000	-1.152405e+002
2505000000	-7.886824e+000	-1.167016e+002
2510000000	-8.323513e+000	-1.184771e+002
2515000000	-8.800229e+000	-1.205958e+002
2520000000	-9.311797e+000	-1.231908e+002
2525000000	-9.849207e+000	-1.262597e+002
2530000000	-1.039175e+001	-1.300884e+002
2535000000	-1.093829e+001	-1.343241e+002
2540000000	-1.144892e+001	-1.392225e+002
2545000000	-1.191191e+001	-1.444816e+002
2550000000	-1.232450e+001	-1.501098e+002
2555000000	-1.266226e+001	-1.557750e+002
2560000000	-1.296421e+001	-1.612594e+002
2565000000	-1.324374e+001	-1.665050e+002
2570000000	-1.352018e+001	-1.714341e+002
2575000000	-1.384417e+001	-1.761171e+002
2580000000	-1.422894e+001	1.792499e+002
2585000000	-1.472691e+001	1.746633e+002
2590000000	-1.533681e+001	1.695890e+002
2595000000	-1.607079e+001	1.638189e+002
2600000000	-1.691782e+001	1.564000e+002
2605000000	-1.783309e+001	1.469449e+002
2610000000	-1.865745e+001	1.342703e+002
2615000000	-1.910323e+001	1.187578e+002
2620000000	-1.890225e+001	1.018015e+002
2625000000	-1.806118e+001	8.605881e+001
2630000000	-1.680119e+001	7.334760e+001
2635000000	-1.548479e+001	6.407694e+001
2640000000	-1.421485e+001	5.729625e+001
2645000000	-1.307335e+001	5.234461e+001
2650000000	-1.208956e+001	4.851838e+001
2655000000	-1.123632e+001	4.545869e+001
2660000000	-1.051491e+001	4.286063e+001
2665000000	-9.905201e+000	4.059665e+001
2670000000	-9.378476e+000	3.834772e+001
2675000000	-8.924665e+000	3.605785e+001
2680000000	-8.534070e+000	3.373608e+001
2685000000	-8.185090e+000	3.118228e+001
2690000000	-7.883040e+000	2.844602e+001
2695000000	-7.599914e+000	2.544762e+001
2700000000	-7.335768e+000	2.228521e+001
2705000000	-7.064877e+000	1.889701e+001
2710000000	-6.786776e+000	1.540252e+001
2715000000	-6.502807e+000	1.189279e+001
2720000000	-6.198590e+000	8.328802e+000
2725000000	-5.881677e+000	4.944764e+000
2730000000	-5.558273e+000	1.789228e+000
2735000000	-5.233645e+000	-1.151281e+000
2740000000	-4.906351e+000	-3.837148e+000
2745000000	-4.591031e+000	-6.179367e+000
2750000000	-4.302189e+000	-8.253422e+000
2755000000	-4.036458e+000	-1.003195e+001
2760000000	-3.801427e+000	-1.160463e+001
2765000000	-3.593671e+000	-1.295202e+001
2770000000	-3.416316e+000	-1.416958e+001
2775000000	-3.257739e+000	-1.534729e+001
2780000000	-3.133554e+000	-1.651673e+001
2785000000	-3.025699e+000	-1.769199e+001
2790000000	-2.933738e+000	-1.896777e+001
2795000000	-2.859829e+000	-2.038333e+001
2800000000	-2.792013e+000	-2.194368e+001
2805000000	-2.727020e+000	-2.370642e+001
2810000000	-2.661558e+000	-2.568061e+001
2815000000	-2.589276e+000	-2.775790e+001
2820000000	-2.512280e+000	-2.998080e+001
2825000000	-2.420889e+000	-3.229863e+001
2830000000	-2.318260e+000	-3.469560e+001
2835000000	-2.215125e+000	-3.699736e+001
2840000000	-2.096122e+000	-3.915141e+001
2845000000	-1.984234e+000	-4.119904e+001
2850000000	-1.870821e+000	-4.302579e+001
2855000000	-1.768490e+000	-4.459593e+001
2860000000	-1.666888e+000	-4.590957e+001
2865000000	-1.580223e+000	-4.703367e+001
2870000000	-1.500492e+000	-4.793447e+001
2875000000	-1.439329e+000	-4.869147e+001
2880000000	-1.383685e+000	-4.928687e+001
2885000000	-1.343106e+000	-4.985671e+001
2890000000	-1.311317e+000	-5.034946e+001
2895000000	-1.289296e+000	-5.089958e+001
2900000000	-1.273495e+000	-5.153693e+001
2905000000	-1.268542e+000	-5.231892e+001
2910000000	-1.262904e+000	-5.323237e+001
2915000000	-1.263958e+000	-5.438507e+001
2920000000	-1.259211e+000	-5.573025e+001
2925000000	-1.261224e+000	-5.733236e+001
2930000000	-1.247892e+000	-5.908031e+001
2935000000	-1.234663e+000	-6.105323e+001
2940000000	-1.204672e+000	-6.310026e+001
2945000000	-1.165067e+000	-6.514782e+001
2950000000	-1.114777e+000	-6.728294e+001
2955000000	-1.064003e+000	-6.924663e+001
2960000000	-1.003845e+000	-7.110803e+001
2965000000	-9.402458e-001	-7.272268e+001
2970000000	-8.841946e-001	-7.412672e+001
2975000000	-8.296384e-001	-7.521042e+001
2980000000	-7.774805e-001	-7.611278e+001
2985000000	-7.318759e-001	-7.673773e+001
2990000000	-7.014689e-001	-7.711049e+001
2995000000	-6.835199e-001	-7.734183e+001
3000000000	-6.660596e-001	-7.741258e+001
