!Agilent Technologies,E5071C,MY46107443,A.09.30
!Date: Wed Jun 12 17:43:18 2013
!Data & Calibration Information:
!Freq	S11:SOLT1(ON)	S21:NONE(--)	S12:NONE(--)	S22:NONE(--)
# Hz S dB R 50
2000000000	-8.981520e-001	1.777871e+001	-4.850199e+001	1.788864e+002	-2.000000e+002	0.000000e+000	-2.000000e+002	0.000000e+000
2005000000	-8.946578e-001	1.636592e+001	-4.873687e+001	1.662566e+002	-2.000000e+002	0.000000e+000	-2.000000e+002	0.000000e+000
2010000000	-8.970062e-001	1.499963e+001	-4.864994e+001	1.559838e+002	-2.000000e+002	0.000000e+000	-2.000000e+002	0.000000e+000
2015000000	-9.085307e-001	1.377407e+001	-4.813430e+001	1.428212e+002	-2.000000e+002	0.000000e+000	-2.000000e+002	0.000000e+000
2020000000	-9.246088e-001	1.248040e+001	-4.796211e+001	1.322014e+002	-2.000000e+002	0.000000e+000	-2.000000e+002	0.000000e+000
2025000000	-9.457197e-001	1.114801e+001	-4.694203e+001	1.170113e+002	-2.000000e+002	0.000000e+000	-2.000000e+002	0.000000e+000
2030000000	-9.734555e-001	9.734328e+000	-4.635263e+001	1.018411e+002	-2.000000e+002	0.000000e+000	-2.000000e+002	0.000000e+000
2035000000	-1.007067e+000	8.214038e+000	-4.563194e+001	8.640112e+001	-2.000000e+002	0.000000e+000	-2.000000e+002	0.000000e+000
2040000000	-1.036963e+000	6.519491e+000	-4.519063e+001	6.980127e+001	-2.000000e+002	0.000000e+000	-2.000000e+002	0.000000e+000
2045000000	-1.067567e+000	4.600996e+000	-4.497705e+001	5.484550e+001	-2.000000e+002	0.000000e+000	-2.000000e+002	0.000000e+000
2050000000	-1.100856e+000	2.476949e+000	-4.460767e+001	4.039811e+001	-2.000000e+002	0.000000e+000	-2.000000e+002	0.000000e+000
2055000000	-1.117888e+000	1.787972e-001	-4.421205e+001	2.634387e+001	-2.000000e+002	0.000000e+000	-2.000000e+002	0.000000e+000
2060000000	-1.140429e+000	-2.303085e+000	-4.390057e+001	8.939454e+000	-2.000000e+002	0.000000e+000	-2.000000e+002	0.000000e+000
2065000000	-1.156348e+000	-4.933157e+000	-4.364846e+001	-6.293280e+000	-2.000000e+002	0.000000e+000	-2.000000e+002	0.000000e+000
2070000000	-1.169606e+000	-7.612575e+000	-4.313107e+001	-2.102683e+001	-2.000000e+002	0.000000e+000	-2.000000e+002	0.000000e+000
2075000000	-1.169207e+000	-1.032959e+001	-4.296449e+001	-3.664845e+001	-2.000000e+002	0.000000e+000	-2.000000e+002	0.000000e+000
2080000000	-1.164521e+000	-1.299378e+001	-4.284424e+001	-5.181621e+001	-2.000000e+002	0.000000e+000	-2.000000e+002	0.000000e+000
2085000000	-1.150394e+000	-1.563761e+001	-4.268802e+001	-6.420309e+001	-2.000000e+002	0.000000e+000	-2.000000e+002	0.000000e+000
2090000000	-1.151287e+000	-1.797290e+001	-4.236961e+001	-7.659267e+001	-2.000000e+002	0.000000e+000	-2.000000e+002	0.000000e+000
2095000000	-1.136046e+000	-2.022396e+001	-4.176676e+001	-9.006046e+001	-2.000000e+002	0.000000e+000	-2.000000e+002	0.000000e+000
2100000000	-1.135981e+000	-2.226691e+001	-4.123548e+001	-1.006978e+002	-2.000000e+002	0.000000e+000	-2.000000e+002	0.000000e+000
2105000000	-1.134987e+000	-2.401975e+001	-4.050539e+001	-1.132659e+002	-2.000000e+002	0.000000e+000	-2.000000e+002	0.000000e+000
2110000000	-1.144778e+000	-2.562002e+001	-3.967692e+001	-1.278857e+002	-2.000000e+002	0.000000e+000	-2.000000e+002	0.000000e+000
2115000000	-1.157893e+000	-2.708681e+001	-3.876955e+001	-1.418351e+002	-2.000000e+002	0.000000e+000	-2.000000e+002	0.000000e+000
2120000000	-1.185355e+000	-2.835879e+001	-3.777992e+001	-1.567923e+002	-2.000000e+002	0.000000e+000	-2.000000e+002	0.000000e+000
2125000000	-1.213213e+000	-2.954437e+001	-3.699619e+001	-1.706099e+002	-2.000000e+002	0.000000e+000	-2.000000e+002	0.000000e+000
2130000000	-1.258759e+000	-3.073294e+001	-3.598595e+001	1.747488e+002	-2.000000e+002	0.000000e+000	-2.000000e+002	0.000000e+000
2135000000	-1.310565e+000	-3.197838e+001	-3.495254e+001	1.597453e+002	-2.000000e+002	0.000000e+000	-2.000000e+002	0.000000e+000
2140000000	-1.380108e+000	-3.330771e+001	-3.387033e+001	1.435858e+002	-2.000000e+002	0.000000e+000	-2.000000e+002	0.000000e+000
2145000000	-1.464962e+000	-3.479359e+001	-3.276914e+001	1.272412e+002	-2.000000e+002	0.000000e+000	-2.000000e+002	0.000000e+000
2150000000	-1.558393e+000	-3.641951e+001	-3.170364e+001	1.101579e+002	-2.000000e+002	0.000000e+000	-2.000000e+002	0.000000e+000
2155000000	-1.661388e+000	-3.838614e+001	-3.063226e+001	9.293606e+001	-2.000000e+002	0.000000e+000	-2.000000e+002	0.000000e+000
2160000000	-1.783657e+000	-4.056830e+001	-2.964494e+001	7.542737e+001	-2.000000e+002	0.000000e+000	-2.000000e+002	0.000000e+000
2165000000	-1.912556e+000	-4.300689e+001	-2.864182e+001	5.831050e+001	-2.000000e+002	0.000000e+000	-2.000000e+002	0.000000e+000
2170000000	-2.057488e+000	-4.574373e+001	-2.754294e+001	4.006146e+001	-2.000000e+002	0.000000e+000	-2.000000e+002	0.000000e+000
2175000000	-2.219638e+000	-4.864255e+001	-2.652701e+001	2.233834e+001	-2.000000e+002	0.000000e+000	-2.000000e+002	0.000000e+000
2180000000	-2.386269e+000	-5.171537e+001	-2.547302e+001	4.284949e+000	-2.000000e+002	0.000000e+000	-2.000000e+002	0.000000e+000
2185000000	-2.570085e+000	-5.482667e+001	-2.427636e+001	-1.337225e+001	-2.000000e+002	0.000000e+000	-2.000000e+002	0.000000e+000
2190000000	-2.766565e+000	-5.789387e+001	-2.298083e+001	-3.236820e+001	-2.000000e+002	0.000000e+000	-2.000000e+002	0.000000e+000
2195000000	-2.980032e+000	-6.074196e+001	-2.167462e+001	-5.177709e+001	-2.000000e+002	0.000000e+000	-2.000000e+002	0.000000e+000
2200000000	-3.197289e+000	-6.328162e+001	-2.033452e+001	-7.203829e+001	-2.000000e+002	0.000000e+000	-2.000000e+002	0.000000e+000
2205000000	-3.432286e+000	-6.526844e+001	-1.892498e+001	-9.338359e+001	-2.000000e+002	0.000000e+000	-2.000000e+002	0.000000e+000
2210000000	-3.668005e+000	-6.670603e+001	-1.754944e+001	-1.160096e+002	-2.000000e+002	0.000000e+000	-2.000000e+002	0.000000e+000
2215000000	-3.877841e+000	-6.747113e+001	-1.623201e+001	-1.400742e+002	-2.000000e+002	0.000000e+000	-2.000000e+002	0.000000e+000
2220000000	-4.038551e+000	-6.772338e+001	-1.508595e+001	-1.651626e+002	-2.000000e+002	0.000000e+000	-2.000000e+002	0.000000e+000
2225000000	-4.159177e+000	-6.770088e+001	-1.409402e+001	1.692085e+002	-2.000000e+002	0.000000e+000	-2.000000e+002	0.000000e+000
2230000000	-4.251592e+000	-6.747744e+001	-1.326177e+001	1.431007e+002	-2.000000e+002	0.000000e+000	-2.000000e+002	0.000000e+000
2235000000	-4.336349e+000	-6.714486e+001	-1.256977e+001	1.168995e+002	-2.000000e+002	0.000000e+000	-2.000000e+002	0.000000e+000
2240000000	-4.429627e+000	-6.675587e+001	-1.202309e+001	9.066124e+001	-2.000000e+002	0.000000e+000	-2.000000e+002	0.000000e+000
2245000000	-4.543671e+000	-6.622284e+001	-1.156462e+001	6.463921e+001	-2.000000e+002	0.000000e+000	-2.000000e+002	0.000000e+000
2250000000	-4.651719e+000	-6.558359e+001	-1.120096e+001	3.862166e+001	-2.000000e+002	0.000000e+000	-2.000000e+002	0.000000e+000
2255000000	-4.753669e+000	-6.495019e+001	-1.090095e+001	1.277485e+001	-2.000000e+002	0.000000e+000	-2.000000e+002	0.000000e+000
2260000000	-4.866978e+000	-6.445047e+001	-1.066929e+001	-1.305792e+001	-2.000000e+002	0.000000e+000	-2.000000e+002	0.000000e+000
2265000000	-4.989660e+000	-6.401949e+001	-1.050903e+001	-3.873473e+001	-2.000000e+002	0.000000e+000	-2.000000e+002	0.000000e+000
2270000000	-5.109971e+000	-6.376467e+001	-1.039965e+001	-6.436235e+001	-2.000000e+002	0.000000e+000	-2.000000e+002	0.000000e+000
2275000000	-5.216415e+000	-6.348507e+001	-1.034644e+001	-8.994494e+001	-2.000000e+002	0.000000e+000	-2.000000e+002	0.000000e+000
2280000000	-5.278650e+000	-6.334611e+001	-1.034570e+001	-1.154628e+002	-2.000000e+002	0.000000e+000	-2.000000e+002	0.000000e+000
2285000000	-5.273757e+000	-6.360555e+001	-1.039699e+001	-1.408432e+002	-2.000000e+002	0.000000e+000	-2.000000e+002	0.000000e+000
2290000000	-5.190097e+000	-6.439044e+001	-1.049751e+001	-1.661586e+002	-2.000000e+002	0.000000e+000	-2.000000e+002	0.000000e+000
2295000000	-5.069201e+000	-6.592735e+001	-1.063908e+001	1.686145e+002	-2.000000e+002	0.000000e+000	-2.000000e+002	0.000000e+000
2300000000	-4.933729e+000	-6.824783e+001	-1.081414e+001	1.435527e+002	-2.000000e+002	0.000000e+000	-2.000000e+002	0.000000e+000
2305000000	-4.818146e+000	-7.118143e+001	-1.098589e+001	1.185477e+002	-2.000000e+002	0.000000e+000	-2.000000e+002	0.000000e+000
2310000000	-4.761815e+000	-7.455144e+001	-1.118011e+001	9.341194e+001	-2.000000e+002	0.000000e+000	-2.000000e+002	0.000000e+000
2315000000	-4.781986e+000	-7.796831e+001	-1.137903e+001	6.801669e+001	-2.000000e+002	0.000000e+000	-2.000000e+002	0.000000e+000
2320000000	-4.886566e+000	-8.108003e+001	-1.162021e+001	4.214350e+001	-2.000000e+002	0.000000e+000	-2.000000e+002	0.000000e+000
2325000000	-5.074099e+000	-8.337785e+001	-1.192823e+001	1.576483e+001	-2.000000e+002	0.000000e+000	-2.000000e+002	0.000000e+000
2330000000	-5.276860e+000	-8.444247e+001	-1.236318e+001	-1.116081e+001	-2.000000e+002	0.000000e+000	-2.000000e+002	0.000000e+000
2335000000	-5.419412e+000	-8.419296e+001	-1.296439e+001	-3.838196e+001	-2.000000e+002	0.000000e+000	-2.000000e+002	0.000000e+000
2340000000	-5.394746e+000	-8.293786e+001	-1.375238e+001	-6.559326e+001	-2.000000e+002	0.000000e+000	-2.000000e+002	0.000000e+000
2345000000	-5.193894e+000	-8.149159e+001	-1.473389e+001	-9.223776e+001	-2.000000e+002	0.000000e+000	-2.000000e+002	0.000000e+000
2350000000	-4.851627e+000	-8.059742e+001	-1.587412e+001	-1.180417e+002	-2.000000e+002	0.000000e+000	-2.000000e+002	0.000000e+000
2355000000	-4.488127e+000	-8.053666e+001	-1.712407e+001	-1.428794e+002	-2.000000e+002	0.000000e+000	-2.000000e+002	0.000000e+000
2360000000	-4.160046e+000	-8.115004e+001	-1.842531e+001	-1.665430e+002	-2.000000e+002	0.000000e+000	-2.000000e+002	0.000000e+000
2365000000	-3.911049e+000	-8.223360e+001	-1.974394e+001	1.705613e+002	-2.000000e+002	0.000000e+000	-2.000000e+002	0.000000e+000
2370000000	-3.749216e+000	-8.351123e+001	-2.103960e+001	1.485235e+002	-2.000000e+002	0.000000e+000	-2.000000e+002	0.000000e+000
2375000000	-3.676416e+000	-8.500896e+001	-2.231625e+001	1.271519e+002	-2.000000e+002	0.000000e+000	-2.000000e+002	0.000000e+000
2380000000	-3.664368e+000	-8.656917e+001	-2.360418e+001	1.061272e+002	-2.000000e+002	0.000000e+000	-2.000000e+002	0.000000e+000
2385000000	-3.727087e+000	-8.821870e+001	-2.485542e+001	8.545527e+001	-2.000000e+002	0.000000e+000	-2.000000e+002	0.000000e+000
2390000000	-3.846029e+000	-8.992104e+001	-2.610301e+001	6.534500e+001	-2.000000e+002	0.000000e+000	-2.000000e+002	0.000000e+000
2395000000	-4.020723e+000	-9.162620e+001	-2.734855e+001	4.522225e+001	-2.000000e+002	0.000000e+000	-2.000000e+002	0.000000e+000
2400000000	-4.206741e+000	-9.325049e+001	-2.862800e+001	2.574832e+001	-2.000000e+002	0.000000e+000	-2.000000e+002	0.000000e+000
2405000000	-4.411687e+000	-9.492620e+001	-2.985048e+001	6.670923e+000	-2.000000e+002	0.000000e+000	-2.000000e+002	0.000000e+000
2410000000	-4.605806e+000	-9.644818e+001	-3.112790e+001	-1.208646e+001	-2.000000e+002	0.000000e+000	-2.000000e+002	0.000000e+000
2415000000	-4.740444e+000	-9.790740e+001	-3.242499e+001	-2.998906e+001	-2.000000e+002	0.000000e+000	-2.000000e+002	0.000000e+000
2420000000	-4.818578e+000	-9.950092e+001	-3.365680e+001	-4.747219e+001	-2.000000e+002	0.000000e+000	-2.000000e+002	0.000000e+000
2425000000	-4.843528e+000	-1.011717e+002	-3.477147e+001	-6.487232e+001	-2.000000e+002	0.000000e+000	-2.000000e+002	0.000000e+000
2430000000	-4.817924e+000	-1.031708e+002	-3.587654e+001	-8.165067e+001	-2.000000e+002	0.000000e+000	-2.000000e+002	0.000000e+000
2435000000	-4.772063e+000	-1.052576e+002	-3.709657e+001	-9.842355e+001	-2.000000e+002	0.000000e+000	-2.000000e+002	0.000000e+000
2440000000	-4.716980e+000	-1.075160e+002	-3.800013e+001	-1.145962e+002	-2.000000e+002	0.000000e+000	-2.000000e+002	0.000000e+000
2445000000	-4.687656e+000	-1.095932e+002	-3.900439e+001	-1.297021e+002	-2.000000e+002	0.000000e+000	-2.000000e+002	0.000000e+000
2450000000	-4.679892e+000	-1.114950e+002	-3.991767e+001	-1.463187e+002	-2.000000e+002	0.000000e+000	-2.000000e+002	0.000000e+000
2455000000	-4.703546e+000	-1.129425e+002	-4.081632e+001	-1.632106e+002	-2.000000e+002	0.000000e+000	-2.000000e+002	0.000000e+000
2460000000	-4.741541e+000	-1.138535e+002	-4.171185e+001	-1.785225e+002	-2.000000e+002	0.000000e+000	-2.000000e+002	0.000000e+000
2465000000	-4.786507e+000	-1.143630e+002	-4.245017e+001	1.664484e+002	-2.000000e+002	0.000000e+000	-2.000000e+002	0.000000e+000
2470000000	-4.823077e+000	-1.143128e+002	-4.328578e+001	1.514836e+002	-2.000000e+002	0.000000e+000	-2.000000e+002	0.000000e+000
2475000000	-4.828296e+000	-1.139208e+002	-4.381042e+001	1.355963e+002	-2.000000e+002	0.000000e+000	-2.000000e+002	0.000000e+000
2480000000	-4.802695e+000	-1.133266e+002	-4.432084e+001	1.193345e+002	-2.000000e+002	0.000000e+000	-2.000000e+002	0.000000e+000
2485000000	-4.745197e+000	-1.127360e+002	-4.497826e+001	1.017015e+002	-2.000000e+002	0.000000e+000	-2.000000e+002	0.000000e+000
2490000000	-4.658410e+000	-1.123751e+002	-4.567127e+001	8.718981e+001	-2.000000e+002	0.000000e+000	-2.000000e+002	0.000000e+000
2495000000	-4.572555e+000	-1.123609e+002	-4.606320e+001	6.996188e+001	-2.000000e+002	0.000000e+000	-2.000000e+002	0.000000e+000
2500000000	-4.498202e+000	-1.126846e+002	-4.673441e+001	5.532648e+001	-2.000000e+002	0.000000e+000	-2.000000e+002	0.000000e+000
2505000000	-4.457407e+000	-1.135193e+002	-4.714490e+001	3.868617e+001	-2.000000e+002	0.000000e+000	-2.000000e+002	0.000000e+000
2510000000	-4.461366e+000	-1.146771e+002	-4.739958e+001	2.214801e+001	-2.000000e+002	0.000000e+000	-2.000000e+002	0.000000e+000
2515000000	-4.526028e+000	-1.161147e+002	-4.790410e+001	5.491742e+000	-2.000000e+002	0.000000e+000	-2.000000e+002	0.000000e+000
2520000000	-4.639937e+000	-1.176767e+002	-4.801361e+001	-9.803995e+000	-2.000000e+002	0.000000e+000	-2.000000e+002	0.000000e+000
2525000000	-4.796987e+000	-1.191808e+002	-4.842222e+001	-2.636463e+001	-2.000000e+002	0.000000e+000	-2.000000e+002	0.000000e+000
2530000000	-4.972384e+000	-1.203880e+002	-4.935832e+001	-4.374352e+001	-2.000000e+002	0.000000e+000	-2.000000e+002	0.000000e+000
2535000000	-5.106777e+000	-1.211216e+002	-4.940326e+001	-6.203558e+001	-2.000000e+002	0.000000e+000	-2.000000e+002	0.000000e+000
2540000000	-5.153667e+000	-1.214140e+002	-4.966452e+001	-8.130685e+001	-2.000000e+002	0.000000e+000	-2.000000e+002	0.000000e+000
2545000000	-5.041897e+000	-1.214886e+002	-5.019905e+001	-9.863094e+001	-2.000000e+002	0.000000e+000	-2.000000e+002	0.000000e+000
2550000000	-4.796216e+000	-1.217911e+002	-5.072615e+001	-1.145122e+002	-2.000000e+002	0.000000e+000	-2.000000e+002	0.000000e+000
2555000000	-4.415560e+000	-1.226090e+002	-5.088861e+001	-1.325853e+002	-2.000000e+002	0.000000e+000	-2.000000e+002	0.000000e+000
2560000000	-3.991677e+000	-1.240537e+002	-5.118982e+001	-1.521932e+002	-2.000000e+002	0.000000e+000	-2.000000e+002	0.000000e+000
2565000000	-3.573245e+000	-1.259994e+002	-5.150760e+001	-1.693878e+002	-2.000000e+002	0.000000e+000	-2.000000e+002	0.000000e+000
2570000000	-3.185817e+000	-1.281957e+002	-5.189494e+001	1.777430e+002	-2.000000e+002	0.000000e+000	-2.000000e+002	0.000000e+000
2575000000	-2.852444e+000	-1.304642e+002	-5.199136e+001	1.586828e+002	-2.000000e+002	0.000000e+000	-2.000000e+002	0.000000e+000
2580000000	-2.575728e+000	-1.327130e+002	-5.231744e+001	1.402371e+002	-2.000000e+002	0.000000e+000	-2.000000e+002	0.000000e+000
2585000000	-2.350103e+000	-1.348095e+002	-5.215835e+001	1.227219e+002	-2.000000e+002	0.000000e+000	-2.000000e+002	0.000000e+000
2590000000	-2.165399e+000	-1.367490e+002	-5.283291e+001	1.052910e+002	-2.000000e+002	0.000000e+000	-2.000000e+002	0.000000e+000
2595000000	-2.023500e+000	-1.385089e+002	-5.293039e+001	9.089517e+001	-2.000000e+002	0.000000e+000	-2.000000e+002	0.000000e+000
2600000000	-1.913862e+000	-1.401711e+002	-5.317114e+001	7.036959e+001	-2.000000e+002	0.000000e+000	-2.000000e+002	0.000000e+000
2605000000	-1.841705e+000	-1.417810e+002	-5.268780e+001	5.274494e+001	-2.000000e+002	0.000000e+000	-2.000000e+002	0.000000e+000
2610000000	-1.781042e+000	-1.433894e+002	-5.336266e+001	3.520004e+001	-2.000000e+002	0.000000e+000	-2.000000e+002	0.000000e+000
2615000000	-1.749703e+000	-1.450302e+002	-5.342234e+001	1.699854e+001	-2.000000e+002	0.000000e+000	-2.000000e+002	0.000000e+000
2620000000	-1.733268e+000	-1.467617e+002	-5.301583e+001	2.592531e-001	-2.000000e+002	0.000000e+000	-2.000000e+002	0.000000e+000
2625000000	-1.727159e+000	-1.487098e+002	-5.343665e+001	-2.417685e+001	-2.000000e+002	0.000000e+000	-2.000000e+002	0.000000e+000
2630000000	-1.726893e+000	-1.508538e+002	-5.384166e+001	-3.734192e+001	-2.000000e+002	0.000000e+000	-2.000000e+002	0.000000e+000
2635000000	-1.724628e+000	-1.531757e+002	-5.349084e+001	-5.437661e+001	-2.000000e+002	0.000000e+000	-2.000000e+002	0.000000e+000
2640000000	-1.733820e+000	-1.557286e+002	-5.408919e+001	-7.670882e+001	-2.000000e+002	0.000000e+000	-2.000000e+002	0.000000e+000
2645000000	-1.729999e+000	-1.584732e+002	-5.456628e+001	-9.437318e+001	-2.000000e+002	0.000000e+000	-2.000000e+002	0.000000e+000
2650000000	-1.726878e+000	-1.614253e+002	-5.397668e+001	-1.069361e+002	-2.000000e+002	0.000000e+000	-2.000000e+002	0.000000e+000
2655000000	-1.704432e+000	-1.644496e+002	-5.443566e+001	-1.169302e+002	-2.000000e+002	0.000000e+000	-2.000000e+002	0.000000e+000
2660000000	-1.685131e+000	-1.675405e+002	-5.435140e+001	-1.346414e+002	-2.000000e+002	0.000000e+000	-2.000000e+002	0.000000e+000
2665000000	-1.651545e+000	-1.706205e+002	-5.484192e+001	-1.521252e+002	-2.000000e+002	0.000000e+000	-2.000000e+002	0.000000e+000
2670000000	-1.617268e+000	-1.735221e+002	-5.415323e+001	-1.677963e+002	-2.000000e+002	0.000000e+000	-2.000000e+002	0.000000e+000
2675000000	-1.581508e+000	-1.763423e+002	-5.442409e+001	-1.799718e+002	-2.000000e+002	0.000000e+000	-2.000000e+002	0.000000e+000
2680000000	-1.536428e+000	-1.789420e+002	-5.474119e+001	1.590385e+002	-2.000000e+002	0.000000e+000	-2.000000e+002	0.000000e+000
2685000000	-1.494823e+000	1.787013e+002	-5.363381e+001	1.475405e+002	-2.000000e+002	0.000000e+000	-2.000000e+002	0.000000e+000
2690000000	-1.457783e+000	1.766589e+002	-5.360103e+001	1.294769e+002	-2.000000e+002	0.000000e+000	-2.000000e+002	0.000000e+000
2695000000	-1.427962e+000	1.747592e+002	-5.326695e+001	1.109517e+002	-2.000000e+002	0.000000e+000	-2.000000e+002	0.000000e+000
2700000000	-1.408417e+000	1.731033e+002	-5.277830e+001	9.509316e+001	-2.000000e+002	0.000000e+000	-2.000000e+002	0.000000e+000
2705000000	-1.401973e+000	1.715578e+002	-5.236435e+001	7.561561e+001	-2.000000e+002	0.000000e+000	-2.000000e+002	0.000000e+000
2710000000	-1.394946e+000	1.701462e+002	-5.260887e+001	5.693726e+001	-2.000000e+002	0.000000e+000	-2.000000e+002	0.000000e+000
2715000000	-1.399831e+000	1.687921e+002	-5.257278e+001	3.717020e+001	-2.000000e+002	0.000000e+000	-2.000000e+002	0.000000e+000
2720000000	-1.420932e+000	1.673951e+002	-5.241606e+001	2.081763e+001	-2.000000e+002	0.000000e+000	-2.000000e+002	0.000000e+000
2725000000	-1.445062e+000	1.659151e+002	-5.215452e+001	4.062157e+000	-2.000000e+002	0.000000e+000	-2.000000e+002	0.000000e+000
2730000000	-1.475598e+000	1.643156e+002	-5.263695e+001	-1.386645e+001	-2.000000e+002	0.000000e+000	-2.000000e+002	0.000000e+000
2735000000	-1.500722e+000	1.625078e+002	-5.292029e+001	-3.021423e+001	-2.000000e+002	0.000000e+000	-2.000000e+002	0.000000e+000
2740000000	-1.543648e+000	1.605532e+002	-5.307739e+001	-4.489766e+001	-2.000000e+002	0.000000e+000	-2.000000e+002	0.000000e+000
2745000000	-1.575226e+000	1.583683e+002	-5.307809e+001	-6.480594e+001	-2.000000e+002	0.000000e+000	-2.000000e+002	0.000000e+000
2750000000	-1.602328e+000	1.558960e+002	-5.297969e+001	-7.661038e+001	-2.000000e+002	0.000000e+000	-2.000000e+002	0.000000e+000
2755000000	-1.627485e+000	1.533051e+002	-5.283626e+001	-9.258448e+001	-2.000000e+002	0.000000e+000	-2.000000e+002	0.000000e+000
2760000000	-1.646074e+000	1.504979e+002	-5.304439e+001	-1.075390e+002	-2.000000e+002	0.000000e+000	-2.000000e+002	0.000000e+000
2765000000	-1.649782e+000	1.475990e+002	-5.205211e+001	-1.287692e+002	-2.000000e+002	0.000000e+000	-2.000000e+002	0.000000e+000
