!Agilent Technologies,E5071C,MY46107443,A.09.30
!Date: Wed Jun 12 17:41:48 2013
!Data & Calibration Information:
!Freq	S11:SOLT1(ON)	S21:NONE(--)	S12:NONE(--)	S22:NONE(--)
# Hz S dB R 50
2000000000	-9.074026e-001	1.786606e+001	-5.004706e+001	1.726569e+002	-2.000000e+002	0.000000e+000	-2.000000e+002	0.000000e+000
2005000000	-9.006991e-001	1.643568e+001	-4.980179e+001	1.559798e+002	-2.000000e+002	0.000000e+000	-2.000000e+002	0.000000e+000
2010000000	-9.031227e-001	1.507083e+001	-5.010078e+001	1.417766e+002	-2.000000e+002	0.000000e+000	-2.000000e+002	0.000000e+000
2015000000	-9.200149e-001	1.382434e+001	-5.015817e+001	1.292926e+002	-2.000000e+002	0.000000e+000	-2.000000e+002	0.000000e+000
2020000000	-9.347827e-001	1.256007e+001	-5.004214e+001	1.141734e+002	-2.000000e+002	0.000000e+000	-2.000000e+002	0.000000e+000
2025000000	-9.579811e-001	1.121843e+001	-4.956749e+001	9.991111e+001	-2.000000e+002	0.000000e+000	-2.000000e+002	0.000000e+000
2030000000	-9.871950e-001	9.814860e+000	-4.944635e+001	8.949851e+001	-2.000000e+002	0.000000e+000	-2.000000e+002	0.000000e+000
2035000000	-1.021752e+000	8.305593e+000	-4.870070e+001	7.309876e+001	-2.000000e+002	0.000000e+000	-2.000000e+002	0.000000e+000
2040000000	-1.047912e+000	6.609919e+000	-4.848214e+001	5.688304e+001	-2.000000e+002	0.000000e+000	-2.000000e+002	0.000000e+000
2045000000	-1.077695e+000	4.699527e+000	-4.799780e+001	4.070121e+001	-2.000000e+002	0.000000e+000	-2.000000e+002	0.000000e+000
2050000000	-1.110915e+000	2.595008e+000	-4.748883e+001	2.351451e+001	-2.000000e+002	0.000000e+000	-2.000000e+002	0.000000e+000
2055000000	-1.130763e+000	3.165586e-001	-4.758580e+001	8.541792e+000	-2.000000e+002	0.000000e+000	-2.000000e+002	0.000000e+000
2060000000	-1.155029e+000	-2.148104e+000	-4.769291e+001	-7.678719e+000	-2.000000e+002	0.000000e+000	-2.000000e+002	0.000000e+000
2065000000	-1.164501e+000	-4.767764e+000	-4.749546e+001	-2.447142e+001	-2.000000e+002	0.000000e+000	-2.000000e+002	0.000000e+000
2070000000	-1.175039e+000	-7.455112e+000	-4.728223e+001	-4.091926e+001	-2.000000e+002	0.000000e+000	-2.000000e+002	0.000000e+000
2075000000	-1.172318e+000	-1.015360e+001	-4.724955e+001	-5.774804e+001	-2.000000e+002	0.000000e+000	-2.000000e+002	0.000000e+000
2080000000	-1.174367e+000	-1.283622e+001	-4.733599e+001	-7.097474e+001	-2.000000e+002	0.000000e+000	-2.000000e+002	0.000000e+000
2085000000	-1.160879e+000	-1.545314e+001	-4.708658e+001	-8.546039e+001	-2.000000e+002	0.000000e+000	-2.000000e+002	0.000000e+000
2090000000	-1.152615e+000	-1.782075e+001	-4.667037e+001	-1.047922e+002	-2.000000e+002	0.000000e+000	-2.000000e+002	0.000000e+000
2095000000	-1.139938e+000	-2.005277e+001	-4.686321e+001	-1.175396e+002	-2.000000e+002	0.000000e+000	-2.000000e+002	0.000000e+000
2100000000	-1.138356e+000	-2.209167e+001	-4.673306e+001	-1.324247e+002	-2.000000e+002	0.000000e+000	-2.000000e+002	0.000000e+000
2105000000	-1.136671e+000	-2.385459e+001	-4.628814e+001	-1.475444e+002	-2.000000e+002	0.000000e+000	-2.000000e+002	0.000000e+000
2110000000	-1.146907e+000	-2.548039e+001	-4.637338e+001	-1.627493e+002	-2.000000e+002	0.000000e+000	-2.000000e+002	0.000000e+000
2115000000	-1.160134e+000	-2.689462e+001	-4.600813e+001	-1.775796e+002	-2.000000e+002	0.000000e+000	-2.000000e+002	0.000000e+000
2120000000	-1.182962e+000	-2.818716e+001	-4.574470e+001	1.679538e+002	-2.000000e+002	0.000000e+000	-2.000000e+002	0.000000e+000
2125000000	-1.209465e+000	-2.940623e+001	-4.549507e+001	1.538580e+002	-2.000000e+002	0.000000e+000	-2.000000e+002	0.000000e+000
2130000000	-1.255024e+000	-3.061975e+001	-4.488629e+001	1.372444e+002	-2.000000e+002	0.000000e+000	-2.000000e+002	0.000000e+000
2135000000	-1.308113e+000	-3.182683e+001	-4.456313e+001	1.224008e+002	-2.000000e+002	0.000000e+000	-2.000000e+002	0.000000e+000
2140000000	-1.382859e+000	-3.318565e+001	-4.409920e+001	1.056120e+002	-2.000000e+002	0.000000e+000	-2.000000e+002	0.000000e+000
2145000000	-1.470652e+000	-3.465457e+001	-4.381275e+001	8.999980e+001	-2.000000e+002	0.000000e+000	-2.000000e+002	0.000000e+000
2150000000	-1.564513e+000	-3.629113e+001	-4.335141e+001	7.391641e+001	-2.000000e+002	0.000000e+000	-2.000000e+002	0.000000e+000
2155000000	-1.673137e+000	-3.824520e+001	-4.276474e+001	5.727106e+001	-2.000000e+002	0.000000e+000	-2.000000e+002	0.000000e+000
2160000000	-1.799686e+000	-4.037503e+001	-4.202249e+001	3.783038e+001	-2.000000e+002	0.000000e+000	-2.000000e+002	0.000000e+000
2165000000	-1.930810e+000	-4.277652e+001	-4.190189e+001	1.768390e+001	-2.000000e+002	0.000000e+000	-2.000000e+002	0.000000e+000
2170000000	-2.073933e+000	-4.542049e+001	-4.175190e+001	-1.431258e+000	-2.000000e+002	0.000000e+000	-2.000000e+002	0.000000e+000
2175000000	-2.232323e+000	-4.829953e+001	-4.182381e+001	-2.024319e+001	-2.000000e+002	0.000000e+000	-2.000000e+002	0.000000e+000
2180000000	-2.394982e+000	-5.129416e+001	-4.178123e+001	-3.720432e+001	-2.000000e+002	0.000000e+000	-2.000000e+002	0.000000e+000
2185000000	-2.570839e+000	-5.437915e+001	-4.180532e+001	-5.545699e+001	-2.000000e+002	0.000000e+000	-2.000000e+002	0.000000e+000
2190000000	-2.761437e+000	-5.737821e+001	-4.152281e+001	-7.178922e+001	-2.000000e+002	0.000000e+000	-2.000000e+002	0.000000e+000
2195000000	-2.961149e+000	-6.017370e+001	-4.128645e+001	-8.941067e+001	-2.000000e+002	0.000000e+000	-2.000000e+002	0.000000e+000
2200000000	-3.166024e+000	-6.267584e+001	-4.110510e+001	-1.075291e+002	-2.000000e+002	0.000000e+000	-2.000000e+002	0.000000e+000
2205000000	-3.386602e+000	-6.471613e+001	-4.130846e+001	-1.294078e+002	-2.000000e+002	0.000000e+000	-2.000000e+002	0.000000e+000
2210000000	-3.609567e+000	-6.623679e+001	-4.144221e+001	-1.468559e+002	-2.000000e+002	0.000000e+000	-2.000000e+002	0.000000e+000
2215000000	-3.809113e+000	-6.705110e+001	-4.131746e+001	-1.643774e+002	-2.000000e+002	0.000000e+000	-2.000000e+002	0.000000e+000
2220000000	-3.979703e+000	-6.739568e+001	-4.117529e+001	1.750955e+002	-2.000000e+002	0.000000e+000	-2.000000e+002	0.000000e+000
2225000000	-4.102340e+000	-6.733316e+001	-4.137902e+001	1.521122e+002	-2.000000e+002	0.000000e+000	-2.000000e+002	0.000000e+000
2230000000	-4.187411e+000	-6.700633e+001	-4.187053e+001	1.306872e+002	-2.000000e+002	0.000000e+000	-2.000000e+002	0.000000e+000
2235000000	-4.244524e+000	-6.662301e+001	-4.258732e+001	1.085781e+002	-2.000000e+002	0.000000e+000	-2.000000e+002	0.000000e+000
2240000000	-4.298589e+000	-6.630581e+001	-4.353952e+001	8.523885e+001	-2.000000e+002	0.000000e+000	-2.000000e+002	0.000000e+000
2245000000	-4.377492e+000	-6.607905e+001	-4.519865e+001	6.441472e+001	-2.000000e+002	0.000000e+000	-2.000000e+002	0.000000e+000
2250000000	-4.488056e+000	-6.590379e+001	-4.648328e+001	4.282774e+001	-2.000000e+002	0.000000e+000	-2.000000e+002	0.000000e+000
2255000000	-4.632312e+000	-6.565823e+001	-4.863202e+001	1.915172e+001	-2.000000e+002	0.000000e+000	-2.000000e+002	0.000000e+000
2260000000	-4.807316e+000	-6.521807e+001	-5.179335e+001	-5.844162e+000	-2.000000e+002	0.000000e+000	-2.000000e+002	0.000000e+000
2265000000	-4.979014e+000	-6.465323e+001	-5.675512e+001	-3.709402e+001	-2.000000e+002	0.000000e+000	-2.000000e+002	0.000000e+000
2270000000	-5.124915e+000	-6.410651e+001	-6.439998e+001	-1.160766e+002	-2.000000e+002	0.000000e+000	-2.000000e+002	0.000000e+000
2275000000	-5.222462e+000	-6.356852e+001	-5.968356e+001	1.643568e+002	-2.000000e+002	0.000000e+000	-2.000000e+002	0.000000e+000
2280000000	-5.238786e+000	-6.330443e+001	-5.318379e+001	1.285831e+002	-2.000000e+002	0.000000e+000	-2.000000e+002	0.000000e+000
2285000000	-5.201579e+000	-6.371015e+001	-4.989953e+001	1.038879e+002	-2.000000e+002	0.000000e+000	-2.000000e+002	0.000000e+000
2290000000	-5.110032e+000	-6.474871e+001	-4.748470e+001	8.265829e+001	-2.000000e+002	0.000000e+000	-2.000000e+002	0.000000e+000
2295000000	-4.999649e+000	-6.653829e+001	-4.543996e+001	6.315468e+001	-2.000000e+002	0.000000e+000	-2.000000e+002	0.000000e+000
2300000000	-4.898346e+000	-6.906365e+001	-4.399100e+001	4.499558e+001	-2.000000e+002	0.000000e+000	-2.000000e+002	0.000000e+000
2305000000	-4.831864e+000	-7.197606e+001	-4.241081e+001	2.934750e+001	-2.000000e+002	0.000000e+000	-2.000000e+002	0.000000e+000
2310000000	-4.808296e+000	-7.523799e+001	-4.097937e+001	1.162787e+001	-2.000000e+002	0.000000e+000	-2.000000e+002	0.000000e+000
2315000000	-4.850369e+000	-7.844893e+001	-3.970256e+001	-5.053856e+000	-2.000000e+002	0.000000e+000	-2.000000e+002	0.000000e+000
2320000000	-4.962460e+000	-8.130361e+001	-3.842029e+001	-2.234161e+001	-2.000000e+002	0.000000e+000	-2.000000e+002	0.000000e+000
2325000000	-5.127376e+000	-8.334414e+001	-3.718937e+001	-3.853999e+001	-2.000000e+002	0.000000e+000	-2.000000e+002	0.000000e+000
2330000000	-5.302960e+000	-8.430624e+001	-3.597432e+001	-5.511994e+001	-2.000000e+002	0.000000e+000	-2.000000e+002	0.000000e+000
2335000000	-5.418512e+000	-8.411400e+001	-3.472545e+001	-7.211530e+001	-2.000000e+002	0.000000e+000	-2.000000e+002	0.000000e+000
2340000000	-5.383540e+000	-8.296883e+001	-3.353054e+001	-8.870587e+001	-2.000000e+002	0.000000e+000	-2.000000e+002	0.000000e+000
2345000000	-5.182342e+000	-8.163687e+001	-3.229453e+001	-1.058627e+002	-2.000000e+002	0.000000e+000	-2.000000e+002	0.000000e+000
2350000000	-4.863774e+000	-8.079298e+001	-3.106062e+001	-1.232897e+002	-2.000000e+002	0.000000e+000	-2.000000e+002	0.000000e+000
2355000000	-4.502361e+000	-8.064088e+001	-2.975713e+001	-1.412923e+002	-2.000000e+002	0.000000e+000	-2.000000e+002	0.000000e+000
2360000000	-4.172299e+000	-8.117128e+001	-2.848268e+001	-1.596065e+002	-2.000000e+002	0.000000e+000	-2.000000e+002	0.000000e+000
2365000000	-3.914851e+000	-8.218420e+001	-2.722150e+001	-1.780405e+002	-2.000000e+002	0.000000e+000	-2.000000e+002	0.000000e+000
2370000000	-3.749936e+000	-8.348069e+001	-2.592850e+001	1.627365e+002	-2.000000e+002	0.000000e+000	-2.000000e+002	0.000000e+000
2375000000	-3.664689e+000	-8.500009e+001	-2.460909e+001	1.432300e+002	-2.000000e+002	0.000000e+000	-2.000000e+002	0.000000e+000
2380000000	-3.654162e+000	-8.660252e+001	-2.328328e+001	1.226932e+002	-2.000000e+002	0.000000e+000	-2.000000e+002	0.000000e+000
2385000000	-3.717355e+000	-8.824074e+001	-2.205072e+001	1.014947e+002	-2.000000e+002	0.000000e+000	-2.000000e+002	0.000000e+000
2390000000	-3.834040e+000	-8.998996e+001	-2.084388e+001	7.987862e+001	-2.000000e+002	0.000000e+000	-2.000000e+002	0.000000e+000
2395000000	-4.004785e+000	-9.173414e+001	-1.970869e+001	5.784854e+001	-2.000000e+002	0.000000e+000	-2.000000e+002	0.000000e+000
2400000000	-4.206270e+000	-9.342062e+001	-1.856556e+001	3.566233e+001	-2.000000e+002	0.000000e+000	-2.000000e+002	0.000000e+000
2405000000	-4.420096e+000	-9.498419e+001	-1.743559e+001	1.244011e+001	-2.000000e+002	0.000000e+000	-2.000000e+002	0.000000e+000
2410000000	-4.607998e+000	-9.643400e+001	-1.640066e+001	-1.146143e+001	-2.000000e+002	0.000000e+000	-2.000000e+002	0.000000e+000
2415000000	-4.740462e+000	-9.781095e+001	-1.548921e+001	-3.595537e+001	-2.000000e+002	0.000000e+000	-2.000000e+002	0.000000e+000
2420000000	-4.800295e+000	-9.927856e+001	-1.469002e+001	-6.050127e+001	-2.000000e+002	0.000000e+000	-2.000000e+002	0.000000e+000
2425000000	-4.798767e+000	-1.011003e+002	-1.400645e+001	-8.535064e+001	-2.000000e+002	0.000000e+000	-2.000000e+002	0.000000e+000
2430000000	-4.749547e+000	-1.032441e+002	-1.342077e+001	-1.102269e+002	-2.000000e+002	0.000000e+000	-2.000000e+002	0.000000e+000
2435000000	-4.698850e+000	-1.056174e+002	-1.290945e+001	-1.349155e+002	-2.000000e+002	0.000000e+000	-2.000000e+002	0.000000e+000
2440000000	-4.663618e+000	-1.081114e+002	-1.246450e+001	-1.596244e+002	-2.000000e+002	0.000000e+000	-2.000000e+002	0.000000e+000
2445000000	-4.668076e+000	-1.103446e+002	-1.208000e+001	1.758921e+002	-2.000000e+002	0.000000e+000	-2.000000e+002	0.000000e+000
2450000000	-4.704999e+000	-1.122200e+002	-1.172647e+001	1.514040e+002	-2.000000e+002	0.000000e+000	-2.000000e+002	0.000000e+000
2455000000	-4.769776e+000	-1.135924e+002	-1.140453e+001	1.269115e+002	-2.000000e+002	0.000000e+000	-2.000000e+002	0.000000e+000
2460000000	-4.841879e+000	-1.143344e+002	-1.113094e+001	1.023807e+002	-2.000000e+002	0.000000e+000	-2.000000e+002	0.000000e+000
2465000000	-4.893601e+000	-1.144823e+002	-1.089069e+001	7.775780e+001	-2.000000e+002	0.000000e+000	-2.000000e+002	0.000000e+000
2470000000	-4.913925e+000	-1.142275e+002	-1.070780e+001	5.306309e+001	-2.000000e+002	0.000000e+000	-2.000000e+002	0.000000e+000
2475000000	-4.897897e+000	-1.136807e+002	-1.056885e+001	2.836348e+001	-2.000000e+002	0.000000e+000	-2.000000e+002	0.000000e+000
2480000000	-4.846635e+000	-1.130840e+002	-1.047784e+001	3.630032e+000	-2.000000e+002	0.000000e+000	-2.000000e+002	0.000000e+000
2485000000	-4.774338e+000	-1.125192e+002	-1.044498e+001	-2.108960e+001	-2.000000e+002	0.000000e+000	-2.000000e+002	0.000000e+000
2490000000	-4.690126e+000	-1.121503e+002	-1.045496e+001	-4.573932e+001	-2.000000e+002	0.000000e+000	-2.000000e+002	0.000000e+000
2495000000	-4.601589e+000	-1.121098e+002	-1.049633e+001	-7.035900e+001	-2.000000e+002	0.000000e+000	-2.000000e+002	0.000000e+000
2500000000	-4.528400e+000	-1.123684e+002	-1.056098e+001	-9.491283e+001	-2.000000e+002	0.000000e+000	-2.000000e+002	0.000000e+000
2505000000	-4.470200e+000	-1.131036e+002	-1.065612e+001	-1.194619e+002	-2.000000e+002	0.000000e+000	-2.000000e+002	0.000000e+000
2510000000	-4.456979e+000	-1.142383e+002	-1.076921e+001	-1.441205e+002	-2.000000e+002	0.000000e+000	-2.000000e+002	0.000000e+000
2515000000	-4.489309e+000	-1.156997e+002	-1.090545e+001	-1.688943e+002	-2.000000e+002	0.000000e+000	-2.000000e+002	0.000000e+000
2520000000	-4.587331e+000	-1.173631e+002	-1.106621e+001	1.660677e+002	-2.000000e+002	0.000000e+000	-2.000000e+002	0.000000e+000
2525000000	-4.731921e+000	-1.190297e+002	-1.126543e+001	1.406760e+002	-2.000000e+002	0.000000e+000	-2.000000e+002	0.000000e+000
2530000000	-4.896618e+000	-1.204175e+002	-1.152618e+001	1.149085e+002	-2.000000e+002	0.000000e+000	-2.000000e+002	0.000000e+000
2535000000	-5.044271e+000	-1.213472e+002	-1.189201e+001	8.866272e+001	-2.000000e+002	0.000000e+000	-2.000000e+002	0.000000e+000
2540000000	-5.112927e+000	-1.218075e+002	-1.238229e+001	6.214156e+001	-2.000000e+002	0.000000e+000	-2.000000e+002	0.000000e+000
2545000000	-5.046847e+000	-1.219408e+002	-1.304442e+001	3.552829e+001	-2.000000e+002	0.000000e+000	-2.000000e+002	0.000000e+000
2550000000	-4.827247e+000	-1.221596e+002	-1.387565e+001	9.127823e+000	-2.000000e+002	0.000000e+000	-2.000000e+002	0.000000e+000
2555000000	-4.465214e+000	-1.228128e+002	-1.487952e+001	-1.668817e+001	-2.000000e+002	0.000000e+000	-2.000000e+002	0.000000e+000
2560000000	-4.045829e+000	-1.241087e+002	-1.601550e+001	-4.163820e+001	-2.000000e+002	0.000000e+000	-2.000000e+002	0.000000e+000
2565000000	-3.618781e+000	-1.259265e+002	-1.724768e+001	-6.554389e+001	-2.000000e+002	0.000000e+000	-2.000000e+002	0.000000e+000
2570000000	-3.216552e+000	-1.280154e+002	-1.852783e+001	-8.841840e+001	-2.000000e+002	0.000000e+000	-2.000000e+002	0.000000e+000
2575000000	-2.878134e+000	-1.302829e+002	-1.981007e+001	-1.101483e+002	-2.000000e+002	0.000000e+000	-2.000000e+002	0.000000e+000
2580000000	-2.591921e+000	-1.325304e+002	-2.107459e+001	-1.309866e+002	-2.000000e+002	0.000000e+000	-2.000000e+002	0.000000e+000
2585000000	-2.358940e+000	-1.346136e+002	-2.230002e+001	-1.510618e+002	-2.000000e+002	0.000000e+000	-2.000000e+002	0.000000e+000
2590000000	-2.171202e+000	-1.366087e+002	-2.344333e+001	-1.705226e+002	-2.000000e+002	0.000000e+000	-2.000000e+002	0.000000e+000
2595000000	-2.024397e+000	-1.383864e+002	-2.451293e+001	1.703842e+002	-2.000000e+002	0.000000e+000	-2.000000e+002	0.000000e+000
2600000000	-1.913655e+000	-1.400328e+002	-2.549394e+001	1.514512e+002	-2.000000e+002	0.000000e+000	-2.000000e+002	0.000000e+000
2605000000	-1.840960e+000	-1.416717e+002	-2.643652e+001	1.326942e+002	-2.000000e+002	0.000000e+000	-2.000000e+002	0.000000e+000
2610000000	-1.783237e+000	-1.432843e+002	-2.731631e+001	1.138526e+002	-2.000000e+002	0.000000e+000	-2.000000e+002	0.000000e+000
2615000000	-1.751381e+000	-1.449204e+002	-2.819784e+001	9.483095e+001	-2.000000e+002	0.000000e+000	-2.000000e+002	0.000000e+000
2620000000	-1.732134e+000	-1.466726e+002	-2.905874e+001	7.581302e+001	-2.000000e+002	0.000000e+000	-2.000000e+002	0.000000e+000
2625000000	-1.725817e+000	-1.486401e+002	-2.995557e+001	5.675928e+001	-2.000000e+002	0.000000e+000	-2.000000e+002	0.000000e+000
2630000000	-1.726166e+000	-1.507642e+002	-3.089303e+001	3.756774e+001	-2.000000e+002	0.000000e+000	-2.000000e+002	0.000000e+000
2635000000	-1.723260e+000	-1.530788e+002	-3.185664e+001	1.891890e+001	-2.000000e+002	0.000000e+000	-2.000000e+002	0.000000e+000
2640000000	-1.729344e+000	-1.556468e+002	-3.287529e+001	5.495773e-001	-2.000000e+002	0.000000e+000	-2.000000e+002	0.000000e+000
2645000000	-1.726291e+000	-1.584197e+002	-3.388558e+001	-1.752694e+001	-2.000000e+002	0.000000e+000	-2.000000e+002	0.000000e+000
2650000000	-1.721901e+000	-1.613412e+002	-3.484337e+001	-3.514713e+001	-2.000000e+002	0.000000e+000	-2.000000e+002	0.000000e+000
2655000000	-1.706635e+000	-1.643909e+002	-3.577742e+001	-5.198003e+001	-2.000000e+002	0.000000e+000	-2.000000e+002	0.000000e+000
2660000000	-1.685740e+000	-1.674753e+002	-3.669966e+001	-6.821231e+001	-2.000000e+002	0.000000e+000	-2.000000e+002	0.000000e+000
2665000000	-1.649923e+000	-1.705332e+002	-3.742937e+001	-8.399226e+001	-2.000000e+002	0.000000e+000	-2.000000e+002	0.000000e+000
2670000000	-1.615035e+000	-1.734526e+002	-3.822572e+001	-9.981953e+001	-2.000000e+002	0.000000e+000	-2.000000e+002	0.000000e+000
2675000000	-1.575484e+000	-1.762833e+002	-3.892083e+001	-1.156228e+002	-2.000000e+002	0.000000e+000	-2.000000e+002	0.000000e+000
2680000000	-1.533975e+000	-1.788675e+002	-3.944919e+001	-1.312939e+002	-2.000000e+002	0.000000e+000	-2.000000e+002	0.000000e+000
2685000000	-1.488061e+000	1.787770e+002	-3.981741e+001	-1.468394e+002	-2.000000e+002	0.000000e+000	-2.000000e+002	0.000000e+000
2690000000	-1.456408e+000	1.767037e+002	-4.021473e+001	-1.641788e+002	-2.000000e+002	0.000000e+000	-2.000000e+002	0.000000e+000
2695000000	-1.427697e+000	1.748302e+002	-4.054649e+001	1.787831e+002	-2.000000e+002	0.000000e+000	-2.000000e+002	0.000000e+000
2700000000	-1.407335e+000	1.731555e+002	-4.090068e+001	1.612856e+002	-2.000000e+002	0.000000e+000	-2.000000e+002	0.000000e+000
2705000000	-1.399315e+000	1.716007e+002	-4.123793e+001	1.430719e+002	-2.000000e+002	0.000000e+000	-2.000000e+002	0.000000e+000
2710000000	-1.391790e+000	1.701804e+002	-4.158937e+001	1.245882e+002	-2.000000e+002	0.000000e+000	-2.000000e+002	0.000000e+000
2715000000	-1.398451e+000	1.688202e+002	-4.187775e+001	1.060472e+002	-2.000000e+002	0.000000e+000	-2.000000e+002	0.000000e+000
2720000000	-1.419123e+000	1.674376e+002	-4.256582e+001	8.672080e+001	-2.000000e+002	0.000000e+000	-2.000000e+002	0.000000e+000
2725000000	-1.441036e+000	1.659742e+002	-4.305311e+001	6.800223e+001	-2.000000e+002	0.000000e+000	-2.000000e+002	0.000000e+000
2730000000	-1.470937e+000	1.643747e+002	-4.362000e+001	5.031635e+001	-2.000000e+002	0.000000e+000	-2.000000e+002	0.000000e+000
2735000000	-1.499088e+000	1.625432e+002	-4.436811e+001	3.193688e+001	-2.000000e+002	0.000000e+000	-2.000000e+002	0.000000e+000
2740000000	-1.535607e+000	1.605966e+002	-4.498392e+001	1.472207e+001	-2.000000e+002	0.000000e+000	-2.000000e+002	0.000000e+000
2745000000	-1.570528e+000	1.583877e+002	-4.559395e+001	-3.348696e+000	-2.000000e+002	0.000000e+000	-2.000000e+002	0.000000e+000
2750000000	-1.599215e+000	1.559261e+002	-4.628884e+001	-1.828355e+001	-2.000000e+002	0.000000e+000	-2.000000e+002	0.000000e+000
2755000000	-1.623132e+000	1.533053e+002	-4.655680e+001	-3.477844e+001	-2.000000e+002	0.000000e+000	-2.000000e+002	0.000000e+000
2760000000	-1.643054e+000	1.505199e+002	-4.688271e+001	-5.360570e+001	-2.000000e+002	0.000000e+000	-2.000000e+002	0.000000e+000
2765000000	-1.644915e+000	1.476035e+002	-4.708813e+001	-6.603428e+001	-2.000000e+002	0.000000e+000	-2.000000e+002	0.000000e+000
