!Agilent Technologies,E5071C,MY46107443,A.09.30
!Date: Thu Jun 13 11:19:55 2013
!Data & Calibration Information:
!Freq	S11:SOLT2(ON)
# Hz S dB R 50
2000000000	-3.901330e-001	-5.051254e+000
2005000000	-4.168404e-001	-5.891819e+000
2010000000	-4.230899e-001	-6.733255e+000
2015000000	-4.005882e-001	-7.497442e+000
2020000000	-4.241453e-001	-8.233244e+000
2025000000	-4.116442e-001	-8.968543e+000
2030000000	-4.020241e-001	-9.866989e+000
2035000000	-4.026378e-001	-1.071389e+001
2040000000	-4.042868e-001	-1.140106e+001
2045000000	-4.089532e-001	-1.249424e+001
2050000000	-4.035577e-001	-1.319300e+001
2055000000	-3.993395e-001	-1.392170e+001
2060000000	-3.891934e-001	-1.471249e+001
2065000000	-3.849385e-001	-1.562008e+001
2070000000	-4.043402e-001	-1.640735e+001
2075000000	-3.935635e-001	-1.722476e+001
2080000000	-3.986828e-001	-1.805832e+001
2085000000	-3.969428e-001	-1.883447e+001
2090000000	-4.071110e-001	-1.953848e+001
2095000000	-3.958250e-001	-2.052099e+001
2100000000	-3.948792e-001	-2.138145e+001
2105000000	-4.070523e-001	-2.215628e+001
2110000000	-3.888016e-001	-2.294276e+001
2115000000	-3.881687e-001	-2.380701e+001
2120000000	-4.016208e-001	-2.467985e+001
2125000000	-3.983886e-001	-2.542680e+001
2130000000	-3.940967e-001	-2.628427e+001
2135000000	-3.983584e-001	-2.731063e+001
2140000000	-4.166014e-001	-2.806707e+001
2145000000	-4.069514e-001	-2.894400e+001
2150000000	-4.090492e-001	-2.988817e+001
2155000000	-4.252071e-001	-3.074073e+001
2160000000	-4.242184e-001	-3.178547e+001
2165000000	-4.679811e-001	-3.256521e+001
2170000000	-4.371909e-001	-3.352532e+001
2175000000	-4.416875e-001	-3.452933e+001
2180000000	-4.712254e-001	-3.525414e+001
2185000000	-4.989260e-001	-3.632047e+001
2190000000	-4.869354e-001	-3.739988e+001
2195000000	-4.912262e-001	-3.815968e+001
2200000000	-5.245713e-001	-3.929479e+001
2205000000	-5.252308e-001	-4.014656e+001
2210000000	-5.710811e-001	-4.108611e+001
2215000000	-5.766746e-001	-4.223532e+001
2220000000	-5.960559e-001	-4.334010e+001
2225000000	-6.208976e-001	-4.431695e+001
2230000000	-6.456954e-001	-4.526005e+001
2235000000	-6.913887e-001	-4.651854e+001
2240000000	-7.004825e-001	-4.739404e+001
2245000000	-7.807744e-001	-4.878796e+001
2250000000	-8.140327e-001	-4.971670e+001
2255000000	-8.505363e-001	-5.078347e+001
2260000000	-9.117786e-001	-5.179219e+001
2265000000	-9.553914e-001	-5.303838e+001
2270000000	-1.048452e+000	-5.404925e+001
2275000000	-1.126095e+000	-5.521090e+001
2280000000	-1.200577e+000	-5.649570e+001
2285000000	-1.294163e+000	-5.771306e+001
2290000000	-1.370868e+000	-5.886710e+001
2295000000	-1.492465e+000	-5.993119e+001
2300000000	-1.659685e+000	-6.095090e+001
2305000000	-1.739995e+000	-6.217478e+001
2310000000	-1.919143e+000	-6.296447e+001
2315000000	-2.074915e+000	-6.407186e+001
2320000000	-2.227917e+000	-6.492262e+001
2325000000	-2.418096e+000	-6.599178e+001
2330000000	-2.618650e+000	-6.664574e+001
2335000000	-2.818001e+000	-6.712172e+001
2340000000	-3.048726e+000	-6.774222e+001
2345000000	-3.278137e+000	-6.795877e+001
2350000000	-3.497659e+000	-6.813165e+001
2355000000	-3.713759e+000	-6.801975e+001
2360000000	-3.942993e+000	-6.785927e+001
2365000000	-4.159165e+000	-6.734882e+001
2370000000	-4.337073e+000	-6.675217e+001
2375000000	-4.504871e+000	-6.579391e+001
2380000000	-4.629832e+000	-6.491949e+001
2385000000	-4.734964e+000	-6.388206e+001
2390000000	-4.794122e+000	-6.275215e+001
2395000000	-4.814565e+000	-6.175039e+001
2400000000	-4.798812e+000	-6.088523e+001
2405000000	-4.806358e+000	-5.962870e+001
2410000000	-4.750493e+000	-5.879534e+001
2415000000	-4.623221e+000	-5.802793e+001
2420000000	-4.564580e+000	-5.739284e+001
2425000000	-4.446409e+000	-5.681110e+001
2430000000	-4.337427e+000	-5.649626e+001
2435000000	-4.180651e+000	-5.630984e+001
2440000000	-4.059706e+000	-5.616179e+001
2445000000	-3.933047e+000	-5.594112e+001
2450000000	-3.790528e+000	-5.617809e+001
2455000000	-3.695785e+000	-5.649010e+001
2460000000	-3.563773e+000	-5.668465e+001
2465000000	-3.448321e+000	-5.713762e+001
2470000000	-3.303253e+000	-5.761783e+001
2475000000	-3.224517e+000	-5.786211e+001
2480000000	-3.121667e+000	-5.854186e+001
2485000000	-3.033363e+000	-5.898205e+001
2490000000	-2.919560e+000	-5.958527e+001
2495000000	-2.844643e+000	-6.026335e+001
2500000000	-2.736180e+000	-6.074060e+001
2505000000	-2.672095e+000	-6.158545e+001
2510000000	-2.593543e+000	-6.224005e+001
2515000000	-2.524088e+000	-6.295939e+001
2520000000	-2.453247e+000	-6.368356e+001
2525000000	-2.378624e+000	-6.440707e+001
2530000000	-2.329126e+000	-6.524936e+001
2535000000	-2.266610e+000	-6.593889e+001
2540000000	-2.236203e+000	-6.655761e+001
2545000000	-2.169912e+000	-6.737958e+001
2550000000	-2.138227e+000	-6.806550e+001
2555000000	-2.067899e+000	-6.904085e+001
2560000000	-2.055154e+000	-6.966275e+001
2565000000	-1.994709e+000	-7.049790e+001
2570000000	-1.941269e+000	-7.126902e+001
2575000000	-1.906279e+000	-7.203711e+001
2580000000	-1.868267e+000	-7.265838e+001
2585000000	-1.858700e+000	-7.349480e+001
2590000000	-1.802741e+000	-7.447889e+001
2595000000	-1.802179e+000	-7.515228e+001
2600000000	-1.750366e+000	-7.589912e+001
2605000000	-1.717124e+000	-7.678286e+001
2610000000	-1.705934e+000	-7.758234e+001
2615000000	-1.674523e+000	-7.820831e+001
2620000000	-1.645484e+000	-7.926293e+001
2625000000	-1.627918e+000	-7.991689e+001
2630000000	-1.624661e+000	-8.087874e+001
2635000000	-1.594248e+000	-8.152803e+001
2640000000	-1.549398e+000	-8.238826e+001
2645000000	-1.566828e+000	-8.303543e+001
2650000000	-1.537047e+000	-8.403148e+001
2655000000	-1.527143e+000	-8.460532e+001
2660000000	-1.488985e+000	-8.560044e+001
2665000000	-1.479414e+000	-8.637380e+001
2670000000	-1.475914e+000	-8.703142e+001
2675000000	-1.457892e+000	-8.785160e+001
2680000000	-1.429079e+000	-8.858347e+001
2685000000	-1.431608e+000	-8.942766e+001
2690000000	-1.412446e+000	-9.016532e+001
2695000000	-1.384408e+000	-9.095977e+001
2700000000	-1.401828e+000	-9.189804e+001
2705000000	-1.383772e+000	-9.251718e+001
2710000000	-1.393396e+000	-9.342465e+001
2715000000	-1.381412e+000	-9.409175e+001
2720000000	-1.352254e+000	-9.485229e+001
2725000000	-1.336026e+000	-9.570120e+001
2730000000	-1.361106e+000	-9.648711e+001
2735000000	-1.318343e+000	-9.734359e+001
2740000000	-1.343818e+000	-9.811470e+001
2745000000	-1.319916e+000	-9.884657e+001
2750000000	-1.314608e+000	-9.963542e+001
2755000000	-1.274114e+000	-1.003165e+002
2760000000	-1.272216e+000	-1.012442e+002
2765000000	-1.298632e+000	-1.018499e+002
2770000000	-1.289036e+000	-1.027498e+002
2775000000	-1.258643e+000	-1.035398e+002
2780000000	-1.265708e+000	-1.043911e+002
2785000000	-1.269892e+000	-1.049899e+002
2790000000	-1.254407e+000	-1.058387e+002
2795000000	-1.241969e+000	-1.067017e+002
2800000000	-1.271713e+000	-1.073984e+002
2805000000	-1.242498e+000	-1.082948e+002
2810000000	-1.256739e+000	-1.090282e+002
2815000000	-1.209498e+000	-1.098548e+002
2820000000	-1.225253e+000	-1.105765e+002
2825000000	-1.206372e+000	-1.115368e+002
2830000000	-1.221369e+000	-1.122889e+002
2835000000	-1.219150e+000	-1.131322e+002
2840000000	-1.237130e+000	-1.139875e+002
2845000000	-1.215356e+000	-1.146891e+002
2850000000	-1.220457e+000	-1.155229e+002
2855000000	-1.224264e+000	-1.163399e+002
2860000000	-1.209088e+000	-1.172499e+002
2865000000	-1.207315e+000	-1.179013e+002
2870000000	-1.206661e+000	-1.187398e+002
2875000000	-1.205659e+000	-1.195977e+002
2880000000	-1.214152e+000	-1.204621e+002
2885000000	-1.197236e+000	-1.212180e+002
2890000000	-1.210330e+000	-1.221694e+002
2895000000	-1.219231e+000	-1.230877e+002
2900000000	-1.187352e+000	-1.238345e+002
2905000000	-1.213104e+000	-1.246923e+002
2910000000	-1.193598e+000	-1.255831e+002
2915000000	-1.224769e+000	-1.263827e+002
2920000000	-1.210636e+000	-1.271265e+002
2925000000	-1.174144e+000	-1.282704e+002
2930000000	-1.207667e+000	-1.292144e+002
2935000000	-1.207542e+000	-1.300107e+002
2940000000	-1.229077e+000	-1.308516e+002
2945000000	-1.223984e+000	-1.317057e+002
2950000000	-1.219574e+000	-1.326954e+002
2955000000	-1.211070e+000	-1.336626e+002
2960000000	-1.221971e+000	-1.344086e+002
2965000000	-1.211760e+000	-1.354349e+002
2970000000	-1.222299e+000	-1.362979e+002
2975000000	-1.209541e+000	-1.373458e+002
2980000000	-1.227097e+000	-1.380641e+002
2985000000	-1.224801e+000	-1.391866e+002
2990000000	-1.225472e+000	-1.400691e+002
2995000000	-1.259681e+000	-1.410716e+002
3000000000	-1.253124e+000	-1.418473e+002
